name,type,start_time,duration,"mosi","miso"
"SPI","enable",-7e-06,1.99999999e-08,,
"SPI","result",-1e-06,1.498e-05,0x44,0xFF
"SPI","result",2.594e-05,1.5e-05,0xFF,0x00
"SPI","disable",4.89e-05,1.99999999e-08,,
"SPI","enable",5.014e-05,1.99999999e-08,,
"SPI","result",5.614e-05,1.498e-05,0x44,0xFF
"SPI","result",8.308e-05,1.498e-05,0xFF,0x00
"SPI","disable",0.00010602,1.99999999e-08,,
"SPI","enable",0.00010728,1.99999995e-08,,
"SPI","result",0.00011326,1.5e-05,0x44,0xFF
"SPI","result",0.00014968,1.5e-05,0xFF,0x00
"SPI","disable",0.00017264,2.00000004e-08,,
"SPI","enable",0.00017388,2.00000004e-08,,
"SPI","result",0.00017988,1.498e-05,0x44,0xFF
"SPI","result",0.00020682,1.498e-05,0xFF,0x00
"SPI","disable",0.00022978,2.00000004e-08,,
"SPI","enable",0.00023102,2.00000004e-08,,
"SPI","result",0.00023702,1.498e-05,0x44,0xFF
"SPI","result",0.00026396,1.498e-05,0xFF,0x00
"SPI","disable",0.0002869,1.99999995e-08,,
"SPI","enable",0.00028814,1.99999995e-08,,
"SPI","result",0.00029414,1.498e-05,0x44,0xFF
"SPI","result",0.00032108,1.5e-05,0xFF,0x00
"SPI","disable",0.00034404,1.99999999e-08,,
"SPI","enable",0.00034528,1.99999999e-08,,
"SPI","result",0.00035128,1.498e-05,0x44,0xFF
"SPI","result",0.00037822,1.498e-05,0xFF,0x00
"SPI","disable",0.00040118,1.99999999e-08,,
"SPI","enable",0.00040242,1.99999999e-08,,
"SPI","result",0.0004084,1.5e-05,0x44,0xFF
"SPI","result",0.00043536,1.498e-05,0xFF,0x00
"SPI","disable",0.00047578,1.99999999e-08,,
"SPI","enable",0.00047702,1.99999999e-08,,
"SPI","result",0.00048302,1.498e-05,0x44,0xFF
"SPI","result",0.00050996,1.498e-05,0xFF,0x00
"SPI","disable",0.0005329,1.99999999e-08,,
"SPI","enable",0.00053416,1.99999995e-08,,
"SPI","result",0.00054014,1.5e-05,0x44,0xFF
"SPI","result",0.0005671,1.498e-05,0xFF,0x00
"SPI","disable",0.00059004,1.99999999e-08,,
"SPI","enable",0.00059128,1.99999999e-08,,
"SPI","result",0.00059728,1.498e-05,0x44,0xFF
"SPI","result",0.00062422,1.5e-05,0xFF,0x00
"SPI","disable",0.00064718,1.99999999e-08,,
"SPI","enable",0.00064842,1.99999999e-08,,
"SPI","result",0.00065442,1.498e-05,0x44,0xFF
"SPI","result",0.00068136,1.498e-05,0xFF,0x00
"SPI","disable",0.0007043,2.00000004e-08,,
"SPI","enable",0.00070556,1.99999995e-08,,
"SPI","result",0.00071154,1.5e-05,0x44,0xFF
"SPI","result",0.0007385,1.498e-05,0xFF,0x00
"SPI","disable",0.00076144,2.00000004e-08,,
"SPI","enable",0.00076268,2.00000004e-08,,
"SPI","result",0.00076868,1.498e-05,0x44,0xFF
"SPI","result",0.00080534,1.5e-05,0xFF,0x00
"SPI","disable",0.0008283,2.00000004e-08,,
"SPI","enable",0.00082954,2.00000004e-08,,
"SPI","result",0.00083554,1.498e-05,0x44,0xFF
"SPI","result",0.00086248,1.5e-05,0xFF,0x00
"SPI","disable",0.00095354,1.99999999e-08,,
"SPI","enable",0.0009548,1.99999999e-08,,
"SPI","result",0.00096078,1.5e-05,0x44,0xFF
"SPI","result",0.00098772,1.5e-05,0xFF,0xFF
"SPI","disable",0.00101092,1.99999999e-08,,
"SPI","enable",0.00101792,2.00000004e-08,,
"SPI","result",0.0010274,1.498e-05,0x04,0xFF
"SPI","result",0.00105584,1.498e-05,0x21,0xFF
"SPI","result",0.00108428,1.498e-05,0x71,0xFF
"SPI","result",0.00113418,1.498e-05,0x4B,0xFF
"SPI","result",0.00116262,1.498e-05,0x00,0xFF
"SPI","result",0.00119106,1.498e-05,0x00,0xFF
"SPI","result",0.0012195,1.5e-05,0xBA,0xFF
"SPI","result",0.00124794,1.5e-05,0x9E,0xFF
"SPI","disable",0.00127264,2.00000004e-08,,
"SPI","enable",0.00128188,1.99999999e-08,,
"SPI","result",0.00128786,1.5e-05,0x44,0xFF
"SPI","result",0.00131482,1.498e-05,0xFF,0x00
"SPI","disable",0.00133776,2.00000004e-08,,
"SPI","enable",0.00133902,1.99999999e-08,,
"SPI","result",0.001345,1.5e-05,0x44,0xFF
"SPI","result",0.00137194,1.5e-05,0xFF,0x00
"SPI","disable",0.0013949,2.00000004e-08,,
"SPI","enable",0.00139614,2.00000004e-08,,
"SPI","result",0.00140214,1.498e-05,0x44,0xFF
"SPI","result",0.00142908,1.5e-05,0xFF,0x00
"SPI","disable",0.00145754,1.99999999e-08,,
"SPI","enable",0.00145878,1.99999999e-08,,
"SPI","result",0.00146476,1.5e-05,0x44,0xFF
"SPI","result",0.00149172,1.498e-05,0xFF,0x00
"SPI","disable",0.00151466,2.00000004e-08,,
"SPI","enable",0.00151592,1.99999999e-08,,
"SPI","result",0.0015219,1.5e-05,0x44,0xFF
"SPI","result",0.00154884,1.5e-05,0xFF,0x00
"SPI","disable",0.0015718,2.00000004e-08,,
"SPI","enable",0.00157304,2.00000004e-08,,
"SPI","result",0.00157904,1.498e-05,0x44,0xFF
"SPI","result",0.00160598,1.498e-05,0xFF,0x00
"SPI","disable",0.00162894,2.00000004e-08,,
"SPI","enable",0.00163018,2.00000004e-08,,
"SPI","result",0.00163616,1.5e-05,0x44,0xFF
"SPI","result",0.00166312,1.498e-05,0xFF,0x00
"SPI","disable",0.00168606,1.99999999e-08,,
"SPI","enable",0.00168732,1.99999999e-08,,
"SPI","result",0.0016933,1.5e-05,0x44,0xFF
"SPI","result",0.00172024,1.5e-05,0xFF,0x00
"SPI","disable",0.0017432,1.99999999e-08,,
"SPI","enable",0.00174444,1.99999999e-08,,
"SPI","result",0.00175044,1.498e-05,0x44,0xFF
"SPI","result",0.00179084,1.498e-05,0xFF,0x00
"SPI","disable",0.0018138,1.99999999e-08,,
"SPI","enable",0.00181504,1.99999999e-08,,
"SPI","result",0.00182102,1.5e-05,0x44,0xFF
"SPI","result",0.00184798,1.498e-05,0xFF,0x00
"SPI","disable",0.00187092,1.99999999e-08,,
"SPI","enable",0.00187216,1.99999999e-08,,
"SPI","result",0.00187816,1.498e-05,0x44,0xFF
"SPI","result",0.0019051,1.5e-05,0xFF,0x00
"SPI","disable",0.00192806,1.99999995e-08,,
"SPI","enable",0.0019293,1.99999995e-08,,
"SPI","result",0.0019353,1.498e-05,0x44,0xFF
"SPI","result",0.00196224,1.5e-05,0xFF,0x00
"SPI","disable",0.0019852,1.99999999e-08,,
"SPI","enable",0.00198644,1.99999999e-08,,
"SPI","result",0.00199244,1.498e-05,0x44,0xFF
"SPI","result",0.00201938,1.498e-05,0xFF,0x00
"SPI","disable",0.00204234,1.99999999e-08,,
"SPI","enable",0.00204358,1.99999999e-08,,
"SPI","result",0.00204956,1.5e-05,0x44,0xFF
"SPI","result",0.00207652,1.498e-05,0xFF,0x00
"SPI","disable",0.00211692,1.99999999e-08,,
"SPI","enable",0.00211818,1.99999999e-08,,
"SPI","result",0.00212416,1.5e-05,0x44,0xFF
"SPI","result",0.00215112,1.498e-05,0xFF,0x00
"SPI","disable",0.00217406,2.00000004e-08,,
"SPI","enable",0.00217532,1.99999995e-08,,
"SPI","result",0.0021813,1.5e-05,0x44,0xFF
"SPI","result",0.00220824,1.5e-05,0xFF,0x00
"SPI","disable",0.0022312,2.00000004e-08,,
"SPI","enable",0.00223244,2.00000004e-08,,
"SPI","result",0.00223844,1.498e-05,0x44,0xFF
"SPI","result",0.00226538,1.498e-05,0xFF,0x00
"SPI","disable",0.00228834,2.00000004e-08,,
"SPI","enable",0.00228958,2.00000004e-08,,
"SPI","result",0.00229558,1.498e-05,0x44,0xFF
"SPI","result",0.00232252,1.498e-05,0xFF,0x00
"SPI","disable",0.00234546,1.99999999e-08,,
"SPI","enable",0.0023467,1.99999999e-08,,
"SPI","result",0.0023527,1.498e-05,0x44,0xFF
"SPI","result",0.00237964,1.498e-05,0xFF,0x00
"SPI","disable",0.00240258,1.99999999e-08,,
"SPI","enable",0.00240384,1.99999999e-08,,
"SPI","result",0.00240982,1.498e-05,0x44,0xFF
"SPI","result",0.002446,1.498e-05,0xFF,0x00
"SPI","disable",0.00246894,1.99999995e-08,,
"SPI","enable",0.00247018,1.99999999e-08,,
"SPI","result",0.00247618,1.498e-05,0x44,0xFF
"SPI","result",0.00250312,1.498e-05,0xFF,0x00
"SPI","disable",0.00252606,1.99999999e-08,,
"SPI","enable",0.00252732,1.99999999e-08,,
"SPI","result",0.0025333,1.5e-05,0x44,0xFF
"SPI","result",0.00256024,1.5e-05,0xFF,0x00
"SPI","disable",0.0025832,1.99999999e-08,,
"SPI","enable",0.00258444,1.99999999e-08,,
"SPI","result",0.00259044,1.498e-05,0x44,0xFF
"SPI","result",0.00261738,1.498e-05,0xFF,0x00
"SPI","disable",0.00264032,1.99999999e-08,,
"SPI","enable",0.00264156,1.99999999e-08,,
"SPI","result",0.00264756,1.498e-05,0x44,0xFF
"SPI","result",0.0026745,1.498e-05,0xFF,0x00
"SPI","disable",0.00269746,2.00000004e-08,,
"SPI","enable",0.0026987,2.00000004e-08,,
"SPI","result",0.00270468,1.5e-05,0x44,0xFF
"SPI","result",0.00273164,1.498e-05,0xFF,0x00
"SPI","disable",0.00277206,1.99999999e-08,,
"SPI","enable",0.0027733,1.99999999e-08,,
"SPI","result",0.0027793,1.498e-05,0x44,0xFF
"SPI","result",0.00280624,1.498e-05,0xFF,0x00
"SPI","disable",0.00282918,1.99999995e-08,,
"SPI","enable",0.00283044,1.99999999e-08,,
"SPI","result",0.00283642,1.5e-05,0x44,0xFF
"SPI","result",0.00286336,1.5e-05,0xFF,0x00
"SPI","disable",0.00288632,1.99999999e-08,,
"SPI","enable",0.00288756,1.99999999e-08,,
"SPI","result",0.00289356,1.498e-05,0x44,0xFF
"SPI","result",0.0029205,1.5e-05,0xFF,0x00
"SPI","disable",0.00300384,1.99999999e-08,,
"SPI","enable",0.00300508,1.99999999e-08,,
"SPI","result",0.00301108,1.498e-05,0x44,0xFF
"SPI","result",0.00303802,1.498e-05,0xFF,0x00
"SPI","disable",0.00306098,1.99999999e-08,,
"SPI","enable",0.00306222,1.99999999e-08,,
"SPI","result",0.0030682,1.5e-05,0x44,0xFF
"SPI","result",0.00310464,1.498e-05,0xFF,0x00
"SPI","disable",0.0031276,1.99999999e-08,,
"SPI","enable",0.00312884,1.99999999e-08,,
"SPI","result",0.00313482,1.5e-05,0x44,0xFF
"SPI","result",0.00316178,1.498e-05,0xFF,0x00
"SPI","disable",0.00318472,1.99999999e-08,,
"SPI","enable",0.00318598,1.99999999e-08,,
"SPI","result",0.00319196,1.5e-05,0x44,0xFF
"SPI","result",0.0032189,1.5e-05,0xFF,0x00
"SPI","disable",0.00324186,1.99999999e-08,,
"SPI","enable",0.0032431,1.99999999e-08,,
"SPI","result",0.0032491,1.498e-05,0x44,0xFF
"SPI","result",0.00327604,1.498e-05,0xFF,0x00
"SPI","disable",0.003299,1.99999999e-08,,
"SPI","enable",0.00330024,2.00000004e-08,,
"SPI","result",0.00330622,1.5e-05,0x44,0xFF
"SPI","result",0.00333316,1.5e-05,0xFF,0x00
"SPI","disable",0.00335612,1.99999999e-08,,
"SPI","enable",0.00335736,1.99999999e-08,,
"SPI","result",0.00336336,1.498e-05,0x44,0xFF
"SPI","result",0.0033903,1.498e-05,0xFF,0x00
"SPI","disable",0.00342696,1.99999999e-08,,
"SPI","enable",0.00342822,1.99999999e-08,,
"SPI","result",0.0034342,1.498e-05,0x44,0xFF
"SPI","result",0.00346114,1.5e-05,0xFF,0x00
"SPI","disable",0.0034841,1.99999999e-08,,
"SPI","enable",0.00348534,1.99999999e-08,,
"SPI","result",0.00349132,1.5e-05,0x44,0xFF
"SPI","result",0.00351828,1.498e-05,0xFF,0x00
"SPI","disable",0.00354122,2.00000004e-08,,
"SPI","enable",0.00354248,1.99999999e-08,,
"SPI","result",0.00354846,1.498e-05,0x44,0xFF
"SPI","result",0.0035754,1.5e-05,0xFF,0x00
"SPI","disable",0.00359836,2.00000004e-08,,
"SPI","enable",0.0035996,1.99999999e-08,,
"SPI","result",0.0036056,1.498e-05,0x44,0xFF
"SPI","result",0.00363254,1.498e-05,0xFF,0x00
"SPI","disable",0.00365548,1.99999999e-08,,
"SPI","enable",0.00365672,1.99999999e-08,,
"SPI","result",0.00366272,1.498e-05,0x44,0xFF
"SPI","result",0.00368966,1.5e-05,0xFF,0x00
"SPI","disable",0.00371262,1.99999999e-08,,
"SPI","enable",0.00371386,1.99999999e-08,,
"SPI","result",0.00371986,1.498e-05,0x44,0xFF
"SPI","result",0.00376028,1.498e-05,0xFF,0x00
"SPI","disable",0.00378324,2.00000004e-08,,
"SPI","enable",0.00378448,2.00000004e-08,,
"SPI","result",0.00379046,1.5e-05,0x44,0xFF
"SPI","result",0.00381742,1.498e-05,0xFF,0x00
"SPI","disable",0.00384038,2.00000004e-08,,
"SPI","enable",0.00384162,2.00000004e-08,,
"SPI","result",0.00384762,1.498e-05,0x44,0xFF
"SPI","result",0.00387456,1.498e-05,0xFF,0x00
"SPI","disable",0.0038975,1.99999999e-08,,
"SPI","enable",0.00389876,2.00000004e-08,,
"SPI","result",0.00390474,1.498e-05,0x44,0xFF
"SPI","result",0.00393168,1.5e-05,0xFF,0x00
"SPI","disable",0.00395464,1.99999999e-08,,
"SPI","enable",0.00395588,1.99999999e-08,,
"SPI","result",0.00396188,1.498e-05,0x44,0xFF
"SPI","result",0.00398882,1.498e-05,0xFF,0x00
"SPI","disable",0.00401176,1.99999999e-08,,
"SPI","enable",0.00401302,1.99999999e-08,,
"SPI","result",0.004019,1.498e-05,0x44,0xFF
"SPI","result",0.00404594,1.5e-05,0xFF,0x00
"SPI","disable",0.00408636,1.99999995e-08,,
"SPI","enable",0.0040876,1.99999995e-08,,
"SPI","result",0.0040936,1.498e-05,0x44,0xFF
"SPI","result",0.00412054,1.498e-05,0xFF,0x00
"SPI","disable",0.00414348,2.00000004e-08,,
"SPI","enable",0.00414474,1.99999999e-08,,
"SPI","result",0.00415072,1.498e-05,0x44,0xFF
"SPI","result",0.00417766,1.5e-05,0xFF,0x00
"SPI","disable",0.00420062,2.00000004e-08,,
"SPI","enable",0.00420186,2.00000004e-08,,
"SPI","result",0.00420786,1.498e-05,0x44,0xFF
"SPI","result",0.0042348,1.498e-05,0xFF,0x00
"SPI","disable",0.00425774,1.99999999e-08,,
"SPI","enable",0.00425898,1.99999999e-08,,
"SPI","result",0.00426498,1.498e-05,0x44,0xFF
"SPI","result",0.00429192,1.498e-05,0xFF,0x00
"SPI","disable",0.00431486,1.99999999e-08,,
"SPI","enable",0.0043161,1.99999999e-08,,
"SPI","result",0.0043221,1.498e-05,0x44,0xFF
"SPI","result",0.00434904,1.498e-05,0xFF,0x00
"SPI","disable",0.00437198,1.99999995e-08,,
"SPI","enable",0.00437324,1.99999999e-08,,
"SPI","result",0.00437922,1.5e-05,0x44,0xFF
"SPI","result",0.0044159,1.498e-05,0xFF,0x00
"SPI","disable",0.00443884,1.99999999e-08,,
"SPI","enable",0.0044401,1.99999995e-08,,
"SPI","result",0.00444608,1.498e-05,0x44,0xFF
"SPI","result",0.00447302,1.498e-05,0xFF,0x00
"SPI","disable",0.00449598,2.00000004e-08,,
"SPI","enable",0.00449722,2.00000004e-08,,
"SPI","result",0.0045032,1.5e-05,0x44,0xFF
"SPI","result",0.00453016,1.498e-05,0xFF,0x00
"SPI","disable",0.0045531,1.99999995e-08,,
"SPI","enable",0.00455434,1.99999999e-08,,
"SPI","result",0.00456034,1.498e-05,0x44,0xFF
"SPI","result",0.00458728,1.498e-05,0xFF,0x00
"SPI","disable",0.00461022,1.99999999e-08,,
"SPI","enable",0.00461148,1.99999999e-08,,
"SPI","result",0.00461746,1.498e-05,0x44,0xFF
"SPI","result",0.0046444,1.498e-05,0xFF,0x00
"SPI","disable",0.00466736,1.99999999e-08,,
"SPI","enable",0.0046686,1.99999999e-08,,
"SPI","result",0.00467458,1.5e-05,0x44,0xFF
"SPI","result",0.00470154,1.498e-05,0xFF,0x00
"SPI","disable",0.00474194,1.99999995e-08,,
"SPI","enable",0.00474318,1.99999999e-08,,
"SPI","result",0.00474918,1.498e-05,0x44,0xFF
"SPI","result",0.00477612,1.5e-05,0xFF,0x00
"SPI","disable",0.00479908,2.00000004e-08,,
"SPI","enable",0.00480032,2.00000004e-08,,
"SPI","result",0.00480632,1.498e-05,0x44,0xFF
"SPI","result",0.00483326,1.498e-05,0xFF,0x00
"SPI","disable",0.00485622,2.00000004e-08,,
"SPI","enable",0.00485746,2.00000004e-08,,
"SPI","result",0.00486344,1.5e-05,0x44,0xFF
"SPI","result",0.0048904,1.498e-05,0xFF,0x00
"SPI","disable",0.00491334,1.99999995e-08,,
"SPI","enable",0.0049146,2.00000004e-08,,
"SPI","result",0.00492058,1.5e-05,0x44,0xFF
"SPI","result",0.00494754,1.498e-05,0xFF,0x00
"SPI","disable",0.00506106,1.99999999e-08,,
"SPI","enable",0.0050623,1.99999999e-08,,
"SPI","result",0.00506828,1.5e-05,0x44,0xFF
"SPI","result",0.00509524,1.498e-05,0xFF,0x00
"SPI","disable",0.00511818,1.99999999e-08,,
"SPI","enable",0.00511944,1.99999999e-08,,
"SPI","result",0.00512542,1.5e-05,0x44,0xFF
"SPI","result",0.00515236,1.5e-05,0xFF,0x00
"SPI","disable",0.00517532,2.00000004e-08,,
"SPI","enable",0.00517656,2.00000004e-08,,
"SPI","result",0.00518256,1.498e-05,0x44,0xFF
"SPI","result",0.0052095,1.498e-05,0xFF,0xFF
"SPI","disable",0.0052327,1.99999999e-08,,
"SPI","enable",0.00526864,1.99999999e-08,,
"SPI","result",0.00527812,1.498e-05,0x05,0xFF
"SPI","result",0.00530656,1.498e-05,0x48,0xFF
"SPI","result",0.005335,1.498e-05,0x23,0xFF
"SPI","result",0.00536344,1.498e-05,0x2E,0xFF
"SPI","result",0.00540536,1.498e-05,0x2B,0xFF
"SPI","result",0.0054338,1.498e-05,0x90,0xFF
"SPI","result",0.00546224,1.498e-05,0xB1,0xFF
"SPI","result",0.00549068,1.5e-05,0x4E,0xFF
"SPI","disable",0.00551538,1.99999999e-08,,
"SPI","enable",0.00552462,1.99999999e-08,,
"SPI","result",0.0055306,1.5e-05,0x44,0xFF
"SPI","result",0.00555756,1.498e-05,0xFF,0x00
"SPI","disable",0.0055805,2.00000004e-08,,
"SPI","enable",0.00558174,2.00000004e-08,,
"SPI","result",0.00558774,1.498e-05,0x44,0xFF
"SPI","result",0.00561468,1.5e-05,0xFF,0xFF
"SPI","disable",0.00563788,1.99999999e-08,,
"SPI","enable",0.0056738,1.99999999e-08,,
"SPI","result",0.0056833,1.498e-05,0xEA,0xFF
"SPI","result",0.0057332,1.498e-05,0x3F,0xFF
"SPI","result",0.00576164,1.498e-05,0xB9,0xFF
"SPI","result",0.00579008,1.5e-05,0xE8,0xFF
"SPI","result",0.00581852,1.5e-05,0x8B,0xFF
"SPI","result",0.00584696,1.5e-05,0xA9,0xFF
"SPI","result",0.00587542,1.498e-05,0xCA,0xFF
"SPI","result",0.00590386,1.498e-05,0xD6,0xFF
"SPI","disable",0.00592856,1.99999995e-08,,
"SPI","enable",0.00593778,1.99999995e-08,,
"SPI","result",0.00594378,1.5e-05,0x44,0xFF
"SPI","result",0.00597074,1.498e-05,0xFF,0x00
"SPI","disable",0.00599368,1.99999999e-08,,
"SPI","enable",0.00599494,1.99999999e-08,,
"SPI","result",0.00600092,1.5e-05,0x44,0xFF
"SPI","result",0.00604982,1.5e-05,0xFF,0xFF
"SPI","disable",0.00607302,1.99999995e-08,,
"SPI","enable",0.00610896,1.99999999e-08,,
"SPI","result",0.00611844,1.498e-05,0x05,0xFF
"SPI","result",0.00614688,1.498e-05,0xD2,0xFF
"SPI","result",0.00617532,1.498e-05,0xE5,0xFF
"SPI","result",0.00620376,1.498e-05,0xBE,0xFF
"SPI","result",0.0062322,1.498e-05,0xD1,0xFF
"SPI","result",0.00626064,1.498e-05,0x27,0xFF
"SPI","result",0.00628908,1.498e-05,0x55,0xFF
"SPI","result",0.00631752,1.498e-05,0x82,0xFF
"SPI","disable",0.0063422,2.00000004e-08,,
"SPI","enable",0.0063729,1.99999995e-08,,
"SPI","result",0.00637888,1.5e-05,0x44,0xFF
"SPI","result",0.00640582,1.5e-05,0xFF,0x00
"SPI","disable",0.00642878,2.00000004e-08,,
"SPI","enable",0.00643002,2.00000004e-08,,
"SPI","result",0.00643602,1.498e-05,0x44,0xFF
"SPI","result",0.00646296,1.498e-05,0xFF,0xFF
"SPI","disable",0.00648616,1.99999999e-08,,
"SPI","enable",0.0065221,2.00000004e-08,,
"SPI","result",0.00653158,1.498e-05,0xE5,0xFF
"SPI","result",0.00656002,1.5e-05,0x56,0xFF
"SPI","result",0.00658846,1.5e-05,0x2A,0xFF
"SPI","result",0.00661692,1.498e-05,0x3B,0xFF
"SPI","result",0.00664536,1.498e-05,0x76,0xFF
"SPI","result",0.0066738,1.498e-05,0x76,0xFF
"SPI","result",0.00671572,1.498e-05,0x96,0xFF
"SPI","result",0.00674416,1.5e-05,0x48,0xFF
"SPI","disable",0.00676886,2.00000004e-08,,
"SPI","enable",0.0067781,1.99999999e-08,,
"SPI","result",0.00678408,1.5e-05,0x44,0xFF
"SPI","result",0.00681104,1.498e-05,0xFF,0x00
"SPI","disable",0.00683398,1.99999995e-08,,
"SPI","enable",0.00683524,1.99999999e-08,,
"SPI","result",0.00684122,1.5e-05,0x44,0xFF
"SPI","result",0.00686818,1.498e-05,0xFF,0xFF
"SPI","disable",0.00689138,1.99999999e-08,,
"SPI","enable",0.0069273,1.99999995e-08,,
"SPI","result",0.0069368,1.498e-05,0x05,0xFF
"SPI","result",0.00696524,1.498e-05,0x8E,0xFF
"SPI","result",0.00699368,1.5e-05,0x26,0xFF
"SPI","result",0.00711194,1.5e-05,0xD8,0xFF
"SPI","result",0.00714038,1.5e-05,0x5D,0xFF
"SPI","result",0.00716882,1.5e-05,0x01,0xFF
"SPI","result",0.00719726,1.498e-05,0xA7,0xFF
"SPI","result",0.0072257,1.5e-05,0x88,0xFF
"SPI","disable",0.0072504,2.00000004e-08,,
"SPI","enable",0.00725964,1.99999995e-08,,
"SPI","result",0.00726562,1.5e-05,0x44,0xFF
"SPI","result",0.00729256,1.5e-05,0xFF,0x00
"SPI","disable",0.00731552,1.99999999e-08,,
"SPI","enable",0.00731676,1.99999999e-08,,
"SPI","result",0.00732276,1.498e-05,0x44,0xFF
"SPI","result",0.00737116,1.5e-05,0xFF,0xFF
"SPI","disable",0.00739436,1.99999999e-08,,
"SPI","enable",0.0074303,1.99999999e-08,,
"SPI","result",0.00743978,1.5e-05,0xE2,0xFF
"SPI","result",0.00746822,1.5e-05,0x89,0xFF
"SPI","result",0.00749668,1.498e-05,0xCC,0xFF
"SPI","result",0.00752512,1.498e-05,0x63,0xFF
"SPI","result",0.00755356,1.498e-05,0x79,0xFF
"SPI","result",0.007582,1.5e-05,0x95,0xFF
"SPI","result",0.00761044,1.5e-05,0x00,0xFF
"SPI","result",0.0076389,1.498e-05,0x4B,0xFF
"SPI","disable",0.0076636,1.99999999e-08,,
"SPI","enable",0.00769478,1.99999999e-08,,
"SPI","result",0.00770078,1.498e-05,0x44,0xFF
"SPI","result",0.00772772,1.5e-05,0xFF,0x00
"SPI","disable",0.00775068,1.99999999e-08,,
"SPI","enable",0.00775192,1.99999999e-08,,
"SPI","result",0.00775792,1.498e-05,0x44,0xFF
"SPI","result",0.00778486,1.498e-05,0xFF,0xFF
"SPI","disable",0.00780806,1.99999999e-08,,
"SPI","enable",0.00784398,1.99999999e-08,,
"SPI","result",0.00785346,1.5e-05,0x05,0xFF
"SPI","result",0.00788192,1.498e-05,0xE0,0xFF
"SPI","result",0.00791036,1.498e-05,0x75,0xFF
"SPI","result",0.00793878,1.5e-05,0xCD,0xFF
"SPI","result",0.00796724,1.498e-05,0xA4,0xFF
"SPI","result",0.00801688,1.5e-05,0xB9,0xFF
"SPI","result",0.00804532,1.5e-05,0x46,0xFF
"SPI","result",0.00807376,1.5e-05,0xBC,0xFF
"SPI","disable",0.00809846,2.00000004e-08,,
"SPI","enable",0.0081077,1.99999999e-08,,
"SPI","result",0.00811368,1.498e-05,0x44,0xFF
"SPI","result",0.00814062,1.498e-05,0xFF,0x00
"SPI","disable",0.00816358,1.99999999e-08,,
"SPI","enable",0.00816482,1.99999999e-08,,
"SPI","result",0.00817082,1.498e-05,0x44,0xFF
"SPI","result",0.00819776,1.498e-05,0xFF,0xFF
"SPI","disable",0.00822096,1.99999999e-08,,
"SPI","enable",0.00825688,2.00000004e-08,,
"SPI","result",0.00826636,1.5e-05,0xEA,0xFF
"SPI","result",0.0082948,1.5e-05,0xD3,0xFF
"SPI","result",0.0083447,1.5e-05,0x37,0xFF
"SPI","result",0.00837314,1.5e-05,0xD2,0xFF
"SPI","result",0.00840158,1.5e-05,0x9A,0xFF
"SPI","result",0.00843004,1.498e-05,0x89,0xFF
"SPI","result",0.00845848,1.5e-05,0x82,0xFF
"SPI","result",0.00848692,1.5e-05,0xEA,0xFF
"SPI","disable",0.00851162,1.99999999e-08,,
"SPI","enable",0.00852086,1.99999999e-08,,
"SPI","result",0.00852684,1.5e-05,0x44,0xFF
"SPI","result",0.0085538,1.498e-05,0xFF,0x00
"SPI","disable",0.00857674,1.99999999e-08,,
"SPI","enable",0.008578,1.99999999e-08,,
"SPI","result",0.00858398,1.5e-05,0x44,0xFF
"SPI","result",0.00861092,1.5e-05,0xFF,0xFF
"SPI","disable",0.00863412,1.99999995e-08,,
"SPI","enable",0.008691,2.00000004e-08,,
"SPI","result",0.0087005,1.498e-05,0x05,0xFF
"SPI","result",0.00872894,1.498e-05,0x0C,0xFF
"SPI","result",0.00875738,1.498e-05,0xAE,0xFF
"SPI","result",0.00878582,1.498e-05,0x4C,0xFF
"SPI","result",0.00881426,1.498e-05,0xF5,0xFF
"SPI","result",0.0088427,1.498e-05,0xF6,0xFF
"SPI","result",0.00887114,1.498e-05,0x3C,0xFF
"SPI","result",0.00889958,1.5e-05,0xB3,0xFF
"SPI","disable",0.00892428,1.99999995e-08,,
"SPI","enable",0.00893352,1.99999999e-08,,
"SPI","result",0.0089395,1.5e-05,0x44,0xFF
"SPI","result",0.00896644,1.5e-05,0xFF,0x00
"SPI","disable",0.00901086,1.99999999e-08,,
"SPI","enable",0.0090121,1.99999999e-08,,
"SPI","result",0.0090181,1.498e-05,0x44,0xFF
"SPI","result",0.00904504,1.5e-05,0xFF,0xFF
"SPI","disable",0.00913288,1.99999999e-08,,
"SPI","enable",0.0091688,1.99999999e-08,,
"SPI","result",0.00917828,1.5e-05,0xE9,0xFF
"SPI","result",0.00920672,1.5e-05,0xA7,0xFF
"SPI","result",0.00923516,1.5e-05,0x70,0xFF
"SPI","result",0.0092636,1.5e-05,0xDF,0xFF
"SPI","result",0.00929206,1.498e-05,0xF1,0xFF
"SPI","result",0.00934196,1.498e-05,0x14,0xFF
"SPI","result",0.0093704,1.5e-05,0x4F,0xFF
"SPI","result",0.00939884,1.498e-05,0x04,0xFF
"SPI","disable",0.00942354,2.00000004e-08,,
"SPI","enable",0.00943278,1.99999999e-08,,
"SPI","result",0.00943876,1.498e-05,0x44,0xFF
"SPI","result",0.0094657,1.5e-05,0xFF,0x00
"SPI","disable",0.00948866,1.99999999e-08,,
"SPI","enable",0.0094899,1.99999999e-08,,
"SPI","result",0.0094959,1.498e-05,0x44,0xFF
"SPI","result",0.00952284,1.498e-05,0xFF,0xFF
"SPI","disable",0.00954604,1.99999999e-08,,
"SPI","enable",0.00958196,1.99999999e-08,,
"SPI","result",0.00959144,1.5e-05,0x05,0xFF
"SPI","result",0.00961988,1.5e-05,0xFE,0xFF
"SPI","result",0.00966978,1.498e-05,0x5B,0xFF
"SPI","result",0.00969822,1.498e-05,0xDF,0xFF
"SPI","result",0.00972666,1.498e-05,0x47,0xFF
"SPI","result",0.0097551,1.498e-05,0x0A,0xFF
"SPI","result",0.00978354,1.5e-05,0x7C,0xFF
"SPI","result",0.00981198,1.5e-05,0x5B,0xFF
"SPI","disable",0.00983668,2.00000004e-08,,
"SPI","enable",0.00984592,1.99999999e-08,,
"SPI","result",0.00985192,1.498e-05,0x44,0xFF
"SPI","result",0.00987886,1.498e-05,0xFF,0x00
"SPI","disable",0.00990182,1.99999999e-08,,
"SPI","enable",0.00990306,1.99999999e-08,,
"SPI","result",0.00990904,1.5e-05,0x44,0xFF
"SPI","result",0.009936,1.498e-05,0xFF,0xFF
"SPI","disable",0.0099592,1.99999999e-08,,
"SPI","enable",0.01001708,1.99999995e-08,,
"SPI","result",0.01002656,1.5e-05,0xE2,0xFF
"SPI","result",0.010055,1.498e-05,0xFB,0xFF
"SPI","result",0.01008344,1.5e-05,0x3E,0xFF
"SPI","result",0.01011188,1.5e-05,0x21,0xFF
"SPI","result",0.01014034,1.498e-05,0xA2,0xFF
"SPI","result",0.01016878,1.498e-05,0x1B,0xFF
"SPI","result",0.01019722,1.5e-05,0xAA,0xFF
"SPI","result",0.01022566,1.5e-05,0x93,0xFF
"SPI","disable",0.01025036,1.99999999e-08,,
"SPI","enable",0.0102596,1.99999999e-08,,
"SPI","result",0.01026558,1.5e-05,0x44,0xFF
"SPI","result",0.010314,1.498e-05,0xFF,0x00
"SPI","disable",0.01033694,2.00000004e-08,,
"SPI","enable",0.0103382,1.99999999e-08,,
"SPI","result",0.01034418,1.498e-05,0x44,0xFF
"SPI","result",0.01037112,1.5e-05,0xFF,0xFF
"SPI","disable",0.01039432,1.99999999e-08,,
"SPI","enable",0.01043024,2.00000004e-08,,
"SPI","result",0.01043974,1.498e-05,0x05,0xFF
"SPI","result",0.01046818,1.498e-05,0xBF,0xFF
"SPI","result",0.01049662,1.498e-05,0xFD,0xFF
"SPI","result",0.01052506,1.498e-05,0xAB,0xFF
"SPI","result",0.0105535,1.498e-05,0x69,0xFF
"SPI","result",0.01058194,1.498e-05,0x6C,0xFF
"SPI","result",0.01061038,1.5e-05,0xA8,0xFF
"SPI","result",0.0106563,1.498e-05,0x5A,0xFF
"SPI","disable",0.01068098,1.99999999e-08,,
"SPI","enable",0.01069022,1.99999999e-08,,
"SPI","result",0.0106962,1.5e-05,0x44,0xFF
"SPI","result",0.01072316,1.498e-05,0xFF,0x00
"SPI","disable",0.0107461,1.99999999e-08,,
"SPI","enable",0.01074736,1.99999999e-08,,
"SPI","result",0.01075334,1.5e-05,0x44,0xFF
"SPI","result",0.0107803,1.498e-05,0xFF,0xFF
"SPI","disable",0.0108035,1.99999999e-08,,
"SPI","enable",0.01083942,1.99999999e-08,,
"SPI","result",0.01084892,1.498e-05,0xE2,0xFF
"SPI","result",0.01087736,1.498e-05,0x66,0xFF
"SPI","result",0.0109058,1.498e-05,0xB7,0xFF
"SPI","result",0.01093424,1.498e-05,0x2E,0xFF
"SPI","result",0.01098414,1.498e-05,0x2C,0xFF
"SPI","result",0.01101258,1.5e-05,0x45,0xFF
"SPI","result",0.01104102,1.5e-05,0x2D,0xFF
"SPI","result",0.01106946,1.5e-05,0xFB,0xFF
"SPI","disable",0.01109416,1.99999999e-08,,
"SPI","enable",0.01117176,1.99999999e-08,,
"SPI","result",0.01117776,1.498e-05,0x44,0xFF
"SPI","result",0.0112047,1.498e-05,0xFF,0xFF
"SPI","disable",0.0112279,2.00000004e-08,,
"SPI","enable",0.01126382,1.99999995e-08,,
"SPI","result",0.01127332,1.498e-05,0x05,0xFF
"SPI","result",0.01131124,1.5e-05,0x0D,0xFF
"SPI","result",0.01133968,1.498e-05,0x55,0xFF
"SPI","result",0.01136812,1.5e-05,0xBD,0xFF
"SPI","result",0.01139656,1.5e-05,0xC2,0xFF
"SPI","result",0.011425,1.5e-05,0x37,0xFF
"SPI","result",0.01145346,1.498e-05,0x00,0xFF
"SPI","result",0.0114819,1.498e-05,0x72,0xFF
"SPI","disable",0.0115066,1.99999999e-08,,
"SPI","enable",0.01151582,1.99999999e-08,,
"SPI","result",0.01152182,1.498e-05,0x44,0xFF
"SPI","result",0.01154876,1.5e-05,0xFF,0x00
"SPI","disable",0.01157172,1.99999999e-08,,
"SPI","enable",0.01157296,1.99999999e-08,,
"SPI","result",0.01157896,1.498e-05,0x44,0xFF
"SPI","result",0.0116271,1.5e-05,0xFF,0xFF
"SPI","disable",0.0116503,1.99999999e-08,,
"SPI","enable",0.01168624,1.99999999e-08,,
"SPI","result",0.01169572,1.498e-05,0xE2,0xFF
"SPI","result",0.01172416,1.498e-05,0xFF,0xFF
"SPI","result",0.0117526,1.5e-05,0x57,0xFF
"SPI","result",0.01178104,1.5e-05,0x4D,0xFF
"SPI","result",0.01180948,1.5e-05,0x7C,0xFF
"SPI","result",0.01183792,1.5e-05,0x6C,0xFF
"SPI","result",0.01186638,1.498e-05,0x00,0xFF
"SPI","result",0.01189482,1.498e-05,0x2C,0xFF
"SPI","disable",0.01191952,1.99999999e-08,,
"SPI","enable",0.01192874,1.99999995e-08,,
"SPI","result",0.01195594,1.498e-05,0x44,0xFF
"SPI","result",0.01198288,1.498e-05,0xFF,0x00
"SPI","disable",0.01200584,1.99999995e-08,,
"SPI","enable",0.01200708,1.99999999e-08,,
"SPI","result",0.01201306,1.5e-05,0x44,0xFF
"SPI","result",0.01204002,1.498e-05,0xFF,0xFF
"SPI","disable",0.0120632,1.99999999e-08,,
"SPI","enable",0.01209912,2.00000004e-08,,
"SPI","result",0.01210862,1.498e-05,0x05,0xFF
"SPI","result",0.01213706,1.498e-05,0x9E,0xFF
"SPI","result",0.0121655,1.498e-05,0xF2,0xFF
"SPI","result",0.01219394,1.498e-05,0x46,0xFF
"SPI","result",0.01222238,1.498e-05,0xFD,0xFF
"SPI","result",0.01225082,1.498e-05,0xD3,0xFF
"SPI","result",0.01229672,1.5e-05,0x16,0xFF
"SPI","result",0.01232516,1.5e-05,0x1B,0xFF
"SPI","disable",0.01234986,1.99999995e-08,,
"SPI","enable",0.0123591,1.99999999e-08,,
"SPI","result",0.01236508,1.498e-05,0x44,0xFF
"SPI","result",0.01239202,1.498e-05,0xFF,0x00
"SPI","disable",0.01241498,1.99999999e-08,,
"SPI","enable",0.01241622,1.99999999e-08,,
"SPI","result",0.0124222,1.5e-05,0x44,0xFF
"SPI","result",0.01244916,1.498e-05,0xFF,0xFF
"SPI","disable",0.01247236,1.99999999e-08,,
"SPI","enable",0.0125083,1.99999999e-08,,
"SPI","result",0.01251778,1.498e-05,0xEA,0xFF
"SPI","result",0.01254622,1.498e-05,0x16,0xFF
"SPI","result",0.01257466,1.498e-05,0x7F,0xFF
"SPI","result",0.01262456,1.498e-05,0x67,0xFF
"SPI","result",0.012653,1.5e-05,0x4D,0xFF
"SPI","result",0.01268144,1.5e-05,0xE5,0xFF
"SPI","result",0.01270988,1.5e-05,0xE2,0xFF
"SPI","result",0.01273832,1.5e-05,0xC8,0xFF
"SPI","disable",0.01276302,1.99999999e-08,,
"SPI","enable",0.01277226,2.00000004e-08,,
"SPI","result",0.01277824,1.5e-05,0x44,0xFF
"SPI","result",0.0128052,1.498e-05,0xFF,0x00
"SPI","disable",0.01282814,1.99999995e-08,,
"SPI","enable",0.0128294,2.00000004e-08,,
"SPI","result",0.01283538,1.498e-05,0x44,0xFF
"SPI","result",0.01286232,1.5e-05,0xFF,0xFF
"SPI","disable",0.01288552,2.00000004e-08,,
"SPI","enable",0.01294266,2.00000004e-08,,
"SPI","result",0.01295214,1.498e-05,0x05,0xFF
"SPI","result",0.01298058,1.498e-05,0x37,0xFF
"SPI","result",0.01300902,1.498e-05,0x33,0xFF
"SPI","result",0.01303746,1.498e-05,0x1C,0xFF
"SPI","result",0.0130659,1.5e-05,0xFA,0xFF
"SPI","result",0.01309434,1.5e-05,0xBB,0xFF
"SPI","result",0.01312278,1.5e-05,0xEE,0xFF
"SPI","result",0.01321934,1.498e-05,0xEF,0xFF
"SPI","disable",0.01324404,1.99999999e-08,,
"SPI","enable",0.01327422,1.99999995e-08,,
"SPI","result",0.01328022,1.498e-05,0x44,0xFF
"SPI","result",0.01330716,1.498e-05,0xFF,0x00
"SPI","disable",0.0133301,1.99999999e-08,,
"SPI","enable",0.01333136,1.99999999e-08,,
"SPI","result",0.01333734,1.5e-05,0x44,0xFF
"SPI","result",0.0133643,1.498e-05,0xFF,0xFF
"SPI","disable",0.0133875,1.99999999e-08,,
"SPI","enable",0.01342342,1.99999999e-08,,
"SPI","result",0.0134329,1.498e-05,0xEA,0xFF
"SPI","result",0.01346134,1.498e-05,0x00,0xFF
"SPI","result",0.01348978,1.498e-05,0x5F,0xFF
"SPI","result",0.01351822,1.498e-05,0xBE,0xFF
"SPI","result",0.01354666,1.498e-05,0xA4,0xFF
"SPI","result",0.01359656,1.498e-05,0xFC,0xFF
"SPI","result",0.013625,1.498e-05,0xBF,0xFF
"SPI","result",0.01365344,1.498e-05,0xC1,0xFF
"SPI","disable",0.01367814,1.99999999e-08,,
"SPI","enable",0.01368736,1.99999999e-08,,
"SPI","result",0.01369336,1.498e-05,0x44,0xFF
"SPI","result",0.0137203,1.498e-05,0xFF,0x00
"SPI","disable",0.01374324,1.99999999e-08,,
"SPI","enable",0.0137445,1.99999995e-08,,
"SPI","result",0.01375048,1.5e-05,0x44,0xFF
"SPI","result",0.01377742,1.5e-05,0xFF,0xFF
"SPI","disable",0.01380062,1.99999999e-08,,
"SPI","enable",0.01383656,1.99999999e-08,,
"SPI","result",0.01384604,1.498e-05,0x05,0xFF
"SPI","result",0.01387448,1.498e-05,0x95,0xFF
"SPI","result",0.01392412,1.5e-05,0x12,0xFF
"SPI","result",0.01395256,1.5e-05,0x2F,0xFF
"SPI","result",0.01398102,1.498e-05,0x0A,0xFF
"SPI","result",0.01400946,1.498e-05,0xCF,0xFF
"SPI","result",0.0140379,1.498e-05,0x55,0xFF
"SPI","result",0.01406634,1.498e-05,0x8C,0xFF
"SPI","disable",0.01409104,2.00000004e-08,,
"SPI","enable",0.01410028,1.99999999e-08,,
"SPI","result",0.01410626,1.5e-05,0x44,0xFF
"SPI","result",0.01413322,1.498e-05,0xFF,0x00
"SPI","disable",0.01415616,2.00000004e-08,,
"SPI","enable",0.01415742,1.99999999e-08,,
"SPI","result",0.0141634,1.5e-05,0x44,0xFF
"SPI","result",0.01419034,1.5e-05,0xFF,0xFF
"SPI","disable",0.01421354,1.99999999e-08,,
"SPI","enable",0.01427018,1.99999999e-08,,
"SPI","result",0.01427966,1.498e-05,0xE7,0xFF
"SPI","result",0.0143081,1.498e-05,0x70,0xFF
"SPI","result",0.01433654,1.498e-05,0xC2,0xFF
"SPI","result",0.01436498,1.5e-05,0xD4,0xFF
"SPI","result",0.01439342,1.5e-05,0xF0,0xFF
"SPI","result",0.01442186,1.5e-05,0x81,0xFF
"SPI","result",0.01445032,1.498e-05,0x95,0xFF
"SPI","result",0.01447876,1.498e-05,0xC8,0xFF
"SPI","disable",0.01450346,2.00000004e-08,,
"SPI","enable",0.01451268,1.99999999e-08,,
"SPI","result",0.01451868,1.498e-05,0x44,0xFF
"SPI","result",0.01454562,1.5e-05,0xFF,0x00
"SPI","disable",0.01459004,1.99999995e-08,,
"SPI","enable",0.01459128,1.99999995e-08,,
"SPI","result",0.01459728,1.498e-05,0x44,0xFF
"SPI","result",0.01462422,1.498e-05,0xFF,0xFF
"SPI","disable",0.01464742,2.00000004e-08,,
"SPI","enable",0.01468334,1.99999999e-08,,
"SPI","result",0.01469284,1.498e-05,0xE7,0xFF
"SPI","result",0.01472128,1.498e-05,0x72,0xFF
"SPI","result",0.01474972,1.5e-05,0x00,0xFF
"SPI","result",0.01477816,1.5e-05,0xF9,0xFF
"SPI","result",0.0148066,1.5e-05,0x8D,0xFF
"SPI","result",0.01483506,1.498e-05,0x15,0xFF
"SPI","result",0.0148635,1.498e-05,0x01,0xFF
"SPI","result",0.01491314,1.5e-05,0xA3,0xFF
"SPI","disable",0.01493784,1.99999999e-08,,
"SPI","enable",0.01494708,2.00000004e-08,,
"SPI","result",0.01495306,1.5e-05,0x44,0xFF
"SPI","result",0.01498002,1.498e-05,0xFF,0x00
"SPI","disable",0.01500298,2.00000004e-08,,
"SPI","enable",0.01500422,2.00000004e-08,,
"SPI","result",0.01501022,1.498e-05,0x44,0xFF
"SPI","result",0.01503716,1.498e-05,0xFF,0xFF
"SPI","disable",0.01506036,1.99999999e-08,,
"SPI","enable",0.0150963,2.00000004e-08,,
"SPI","result",0.01510578,1.498e-05,0xE7,0xFF
"SPI","result",0.01513422,1.5e-05,0x18,0xFF
"SPI","result",0.01516268,1.498e-05,0xE5,0xFF
"SPI","result",0.01527896,1.498e-05,0x6C,0xFF
"SPI","result",0.0153074,1.498e-05,0x51,0xFF
"SPI","result",0.01533584,1.5e-05,0x1F,0xFF
"SPI","result",0.01536428,1.5e-05,0x86,0xFF
"SPI","result",0.01539274,1.498e-05,0x9F,0xFF
"SPI","disable",0.01541744,2.00000004e-08,,
"SPI","enable",0.01542666,1.99999999e-08,,
"SPI","result",0.01543266,1.498e-05,0x44,0xFF
"SPI","result",0.0154596,1.5e-05,0xFF,0x00
"SPI","disable",0.01548256,1.99999995e-08,,
"SPI","enable",0.0154838,1.99999999e-08,,
"SPI","result",0.0154898,1.498e-05,0x44,0xFF
"SPI","result",0.01551674,1.5e-05,0xFF,0xFF
"SPI","disable",0.01553996,1.99999999e-08,,
"SPI","enable",0.0155971,1.99999999e-08,,
"SPI","result",0.01560658,1.498e-05,0xE7,0xFF
"SPI","result",0.01563502,1.5e-05,0xDD,0xFF
"SPI","result",0.01566346,1.5e-05,0x37,0xFF
"SPI","result",0.01569192,1.498e-05,0x59,0xFF
"SPI","result",0.01572036,1.498e-05,0x4B,0xFF
"SPI","result",0.0157488,1.5e-05,0xAD,0xFF
"SPI","result",0.01577724,1.5e-05,0xB0,0xFF
"SPI","result",0.01580568,1.5e-05,0x9C,0xFF
"SPI","disable",0.01583038,1.99999995e-08,,
"SPI","enable",0.01583962,1.99999999e-08,,
"SPI","result",0.0158456,1.5e-05,0x44,0xFF
"SPI","result",0.01589376,1.5e-05,0xFF,0x00
"SPI","disable",0.01591672,1.99999999e-08,,
"SPI","enable",0.01591796,1.99999999e-08,,
"SPI","result",0.01592396,1.498e-05,0x44,0xFF
"SPI","result",0.0159509,1.5e-05,0xFF,0xFF
"SPI","disable",0.01597412,1.99999995e-08,,
"SPI","enable",0.01601004,2.00000004e-08,,
"SPI","result",0.01601954,1.498e-05,0xE7,0xFF
"SPI","result",0.01604798,1.498e-05,0xC8,0xFF
"SPI","result",0.01607642,1.498e-05,0xE8,0xFF
"SPI","result",0.01610486,1.498e-05,0x84,0xFF
"SPI","result",0.0161333,1.5e-05,0xCD,0xFF
"SPI","result",0.01616174,1.5e-05,0x55,0xFF
"SPI","result",0.0161902,1.498e-05,0x41,0xFF
"SPI","result",0.0162361,1.5e-05,0x83,0xFF
"SPI","disable",0.0162608,1.99999999e-08,,
"SPI","enable",0.01627004,2.00000004e-08,,
"SPI","result",0.01627602,1.5e-05,0x44,0xFF
"SPI","result",0.01630298,1.498e-05,0xFF,0x00
"SPI","disable",0.01632592,1.99999999e-08,,
"SPI","enable",0.01632718,2.00000004e-08,,
"SPI","result",0.01633316,1.5e-05,0x44,0xFF
"SPI","result",0.0163601,1.5e-05,0xFF,0xFF
"SPI","disable",0.0163833,1.99999999e-08,,
"SPI","enable",0.01641924,2.00000004e-08,,
"SPI","result",0.01642872,1.498e-05,0xEF,0xFF
"SPI","result",0.01645716,1.498e-05,0x4F,0xFF
"SPI","result",0.0164856,1.498e-05,0x8E,0xFF
"SPI","result",0.01651404,1.5e-05,0x38,0xFF
"SPI","result",0.0165637,1.498e-05,0xCB,0xFF
"SPI","result",0.01659214,1.498e-05,0x37,0xFF
"SPI","result",0.01662058,1.498e-05,0x02,0xFF
"SPI","result",0.01664902,1.498e-05,0x87,0xFF
"SPI","disable",0.01667372,1.99999995e-08,,
"SPI","enable",0.01668294,1.99999995e-08,,
"SPI","result",0.01668894,1.498e-05,0x44,0xFF
"SPI","result",0.01671588,1.498e-05,0xFF,0x00
"SPI","disable",0.01673882,1.99999999e-08,,
"SPI","enable",0.01674006,1.99999999e-08,,
"SPI","result",0.01674606,1.498e-05,0x44,0xFF
"SPI","result",0.016773,1.498e-05,0xFF,0xFF
"SPI","disable",0.0167962,1.99999999e-08,,
"SPI","enable",0.01683212,1.99999999e-08,,
"SPI","result",0.0168416,1.498e-05,0xE7,0xFF
"SPI","result",0.0168915,1.498e-05,0xF5,0xFF
"SPI","result",0.01691994,1.498e-05,0x00,0xFF
"SPI","result",0.01694838,1.498e-05,0x88,0xFF
"SPI","result",0.01697682,1.498e-05,0x4C,0xFF
"SPI","result",0.01700526,1.498e-05,0x09,0xFF
"SPI","result",0.0170337,1.498e-05,0x65,0xFF
"SPI","result",0.01706214,1.498e-05,0xCE,0xFF
"SPI","disable",0.01708684,1.99999995e-08,,
"SPI","enable",0.01709606,1.99999995e-08,,
"SPI","result",0.01710206,1.498e-05,0x44,0xFF
"SPI","result",0.017129,1.498e-05,0xFF,0x00
"SPI","disable",0.01715196,1.99999999e-08,,
"SPI","enable",0.0171532,1.99999999e-08,,
"SPI","result",0.01715918,1.5e-05,0x44,0xFF
"SPI","result",0.01720734,1.5e-05,0xFF,0xFF
"SPI","disable",0.01723054,1.99999999e-08,,
"SPI","enable",0.0173346,1.99999999e-08,,
"SPI","result",0.01734408,1.498e-05,0xEF,0xFF
"SPI","result",0.01737252,1.5e-05,0xDD,0xFF
"SPI","result",0.01740098,1.498e-05,0xBC,0xFF
"SPI","result",0.01742942,1.5e-05,0x65,0xFF
"SPI","result",0.01745786,1.5e-05,0x62,0xFF
"SPI","result",0.0174863,1.5e-05,0xAC,0xFF
"SPI","result",0.01753622,1.498e-05,0x75,0xFF
"SPI","result",0.01756466,1.498e-05,0x62,0xFF
"SPI","disable",0.01758936,1.99999999e-08,,
"SPI","enable",0.01759858,1.99999999e-08,,
"SPI","result",0.01760458,1.498e-05,0x44,0xFF
"SPI","result",0.01763152,1.498e-05,0xFF,0x00
"SPI","disable",0.01765448,1.99999999e-08,,
"SPI","enable",0.01765572,1.99999999e-08,,
"SPI","result",0.01766172,1.498e-05,0x44,0xFF
"SPI","result",0.01768866,1.498e-05,0xFF,0xFF
"SPI","disable",0.01771186,1.99999999e-08,,
"SPI","enable",0.01774778,1.99999999e-08,,
"SPI","result",0.01775726,1.5e-05,0xE7,0xFF
"SPI","result",0.0177857,1.5e-05,0xC0,0xFF
"SPI","result",0.01781416,1.498e-05,0xF1,0xFF
"SPI","result",0.0178638,1.498e-05,0x5D,0xFF
"SPI","result",0.01789224,1.498e-05,0x98,0xFF
"SPI","result",0.01792068,1.5e-05,0xB0,0xFF
"SPI","result",0.01794912,1.5e-05,0xDD,0xFF
"SPI","result",0.01797758,1.498e-05,0x43,0xFF
"SPI","disable",0.01800226,2.00000004e-08,,
"SPI","enable",0.0180115,1.99999999e-08,,
"SPI","result",0.01801748,1.5e-05,0x44,0xFF
"SPI","result",0.01804444,1.498e-05,0xFF,0x00
"SPI","disable",0.01806738,1.99999999e-08,,
"SPI","enable",0.01806862,2.00000004e-08,,
"SPI","result",0.01807462,1.498e-05,0x44,0xFF
"SPI","result",0.01810156,1.5e-05,0xFF,0xFF
"SPI","disable",0.01812478,1.99999999e-08,,
"SPI","enable",0.0181607,1.99999995e-08,,
"SPI","result",0.0181914,1.498e-05,0xE7,0xFF
"SPI","result",0.01821984,1.5e-05,0x19,0xFF
"SPI","result",0.01824828,1.5e-05,0xB4,0xFF
"SPI","result",0.01827674,1.498e-05,0xF8,0xFF
"SPI","result",0.01830518,1.498e-05,0x9F,0xFF
"SPI","result",0.01833362,1.498e-05,0x6D,0xFF
"SPI","result",0.01836206,1.498e-05,0x8C,0xFF
"SPI","result",0.0183905,1.498e-05,0xCB,0xFF
"SPI","disable",0.0184152,1.99999999e-08,,
"SPI","enable",0.01842442,1.99999995e-08,,
"SPI","result",0.01843042,1.498e-05,0x44,0xFF
"SPI","result",0.01845736,1.498e-05,0xFF,0x00
"SPI","disable",0.0184803,2.00000004e-08,,
"SPI","enable",0.01848156,1.99999999e-08,,
"SPI","result",0.01848754,1.5e-05,0x44,0xFF
"SPI","result",0.01853196,1.498e-05,0xFF,0xFF
"SPI","disable",0.01855514,1.99999999e-08,,
"SPI","enable",0.01859108,2.00000004e-08,,
"SPI","result",0.01860056,1.498e-05,0xE1,0xFF
"SPI","result",0.018629,1.498e-05,0xDE,0xFF
"SPI","result",0.01865744,1.498e-05,0x63,0xFF
"SPI","result",0.01868588,1.5e-05,0xC2,0xFF
"SPI","result",0.01871432,1.5e-05,0x32,0xFF
"SPI","result",0.01874278,1.498e-05,0xC6,0xFF
"SPI","result",0.01877122,1.498e-05,0xE4,0xFF
"SPI","result",0.01879966,1.5e-05,0x2F,0xFF
"SPI","disable",0.01884558,2.00000004e-08,,
"SPI","enable",0.0188548,2.00000004e-08,,
"SPI","result",0.0188608,1.498e-05,0x44,0xFF
"SPI","result",0.01888774,1.5e-05,0xFF,0x00
"SPI","disable",0.0189107,1.99999999e-08,,
"SPI","enable",0.01891194,1.99999999e-08,,
"SPI","result",0.01891794,1.498e-05,0x44,0xFF
"SPI","result",0.01894488,1.498e-05,0xFF,0xFF
"SPI","disable",0.01896808,1.99999999e-08,,
"SPI","enable",0.019004,2.00000004e-08,,
"SPI","result",0.01901348,1.5e-05,0x05,0xFF
"SPI","result",0.01904192,1.5e-05,0xF4,0xFF
"SPI","result",0.01907036,1.5e-05,0x33,0xFF
"SPI","result",0.0190988,1.5e-05,0xB7,0xFF
"SPI","result",0.01912724,1.5e-05,0x2E,0xFF
"SPI","result",0.0191769,1.498e-05,0x72,0xFF
"SPI","result",0.01920534,1.498e-05,0x9A,0xFF
"SPI","result",0.01923376,1.5e-05,0xF9,0xFF
"SPI","disable",0.01925846,1.99999999e-08,,
"SPI","enable",0.0192677,1.99999999e-08,,
"SPI","result",0.01927368,1.5e-05,0x44,0xFF
"SPI","result",0.01935702,1.498e-05,0xFF,0x00
"SPI","disable",0.01937996,2.00000004e-08,,
"SPI","enable",0.01938122,1.99999999e-08,,
"SPI","result",0.0193872,1.5e-05,0x44,0xFF
"SPI","result",0.01941416,1.498e-05,0xFF,0xFF
"SPI","disable",0.01943736,1.99999999e-08,,
"SPI","enable",0.01947328,1.99999999e-08,,
"SPI","result",0.01950398,1.498e-05,0xE7,0xFF
"SPI","result",0.01953242,1.5e-05,0x65,0xFF
"SPI","result",0.01956086,1.5e-05,0xD9,0xFF
"SPI","result",0.01958932,1.498e-05,0x38,0xFF
"SPI","result",0.01961776,1.498e-05,0xB8,0xFF
"SPI","result",0.0196462,1.5e-05,0xFE,0xFF
"SPI","result",0.01967464,1.5e-05,0x31,0xFF
"SPI","result",0.0197031,1.498e-05,0x16,0xFF
"SPI","disable",0.01972778,2.00000004e-08,,
"SPI","enable",0.01973702,1.99999999e-08,,
"SPI","result",0.01974302,1.498e-05,0x44,0xFF
"SPI","result",0.01976996,1.498e-05,0xFF,0x00
"SPI","disable",0.01979292,1.99999999e-08,,
"SPI","enable",0.01979416,1.99999999e-08,,
"SPI","result",0.01980014,1.5e-05,0x44,0xFF
"SPI","result",0.01984432,1.498e-05,0xFF,0xFF
"SPI","disable",0.01986752,1.99999995e-08,,
"SPI","enable",0.01990344,2.00000004e-08,,
"SPI","result",0.01991292,1.498e-05,0xE7,0xFF
"SPI","result",0.01994136,1.5e-05,0xF3,0xFF
"SPI","result",0.0199698,1.5e-05,0x06,0xFF
"SPI","result",0.01999826,1.498e-05,0x2D,0xFF
"SPI","result",0.02002668,1.5e-05,0xF5,0xFF
"SPI","result",0.02005512,1.5e-05,0xFE,0xFF
"SPI","result",0.02008358,1.498e-05,0x0C,0xFF
"SPI","result",0.020112,1.5e-05,0x38,0xFF
"SPI","disable",0.0201367,1.99999999e-08,,
"SPI","enable",0.02016738,2.00000004e-08,,
"SPI","result",0.02017338,1.498e-05,0x44,0xFF
"SPI","result",0.02020032,1.5e-05,0xFF,0x00
"SPI","disable",0.02022328,2.00000004e-08,,
"SPI","enable",0.02022452,2.00000004e-08,,
"SPI","result",0.02023052,1.498e-05,0x44,0xFF
"SPI","result",0.02025746,1.498e-05,0xFF,0xFF
"SPI","disable",0.02028066,1.99999999e-08,,
"SPI","enable",0.02031658,2.00000004e-08,,
"SPI","result",0.02032608,1.498e-05,0xE7,0xFF
"SPI","result",0.02035452,1.498e-05,0x70,0xFF
"SPI","result",0.02038296,1.498e-05,0x4F,0xFF
"SPI","result",0.0204114,1.498e-05,0xE7,0xFF
"SPI","result",0.02043984,1.498e-05,0x49,0xFF
"SPI","result",0.02048948,1.5e-05,0xB4,0xFF
"SPI","result",0.02051792,1.5e-05,0x58,0xFF
"SPI","result",0.02054636,1.5e-05,0x39,0xFF
"SPI","disable",0.02057106,1.99999995e-08,,
"SPI","enable",0.0205803,2.00000004e-08,,
"SPI","result",0.02058628,1.5e-05,0x44,0xFF
"SPI","result",0.02061324,1.498e-05,0xFF,0x00
"SPI","disable",0.0206362,2.00000004e-08,,
"SPI","enable",0.02063744,1.99999999e-08,,
"SPI","result",0.02064342,1.5e-05,0x44,0xFF
"SPI","result",0.02067038,1.498e-05,0xFF,0xFF
"SPI","disable",0.02069358,1.99999999e-08,,
"SPI","enable",0.0207295,1.99999999e-08,,
"SPI","result",0.02073898,1.5e-05,0xEF,0xFF
"SPI","result",0.02076744,1.498e-05,0xF1,0xFF
"SPI","result",0.02081708,1.498e-05,0x46,0xFF
"SPI","result",0.02084552,1.5e-05,0xA9,0xFF
"SPI","result",0.02087396,1.5e-05,0x23,0xFF
"SPI","result",0.02090242,1.498e-05,0x38,0xFF
"SPI","result",0.02093086,1.498e-05,0x64,0xFF
"SPI","result",0.0209593,1.498e-05,0xC0,0xFF
"SPI","disable",0.020984,1.99999999e-08,,
"SPI","enable",0.02099324,1.99999999e-08,,
"SPI","result",0.02099922,1.498e-05,0x44,0xFF
"SPI","result",0.02102616,1.5e-05,0xFF,0x00
"SPI","disable",0.02104912,2.00000004e-08,,
"SPI","enable",0.02105036,2.00000004e-08,,
"SPI","result",0.02105636,1.5e-05,0x44,0xFF
"SPI","result",0.02108332,1.498e-05,0xFF,0xFF
"SPI","disable",0.02110652,1.99999999e-08,,
"SPI","enable",0.02116316,1.99999999e-08,,
"SPI","result",0.02117264,1.498e-05,0xE7,0xFF
"SPI","result",0.02120108,1.5e-05,0x09,0xFF
"SPI","result",0.02122952,1.5e-05,0x4E,0xFF
"SPI","result",0.02125796,1.5e-05,0x04,0xFF
"SPI","result",0.0212864,1.5e-05,0xD3,0xFF
"SPI","result",0.02131484,1.5e-05,0x46,0xFF
"SPI","result",0.02140342,1.5e-05,0x15,0xFF
"SPI","result",0.02143188,1.498e-05,0x02,0xFF
"SPI","disable",0.02147778,1.99999999e-08,,
"SPI","enable",0.021487,1.99999999e-08,,
"SPI","result",0.021493,1.498e-05,0x44,0xFF
"SPI","result",0.02151994,1.5e-05,0xFF,0x00
"SPI","disable",0.0215429,1.99999999e-08,,
"SPI","enable",0.02154414,1.99999999e-08,,
"SPI","result",0.02155014,1.498e-05,0x44,0xFF
"SPI","result",0.02157708,1.5e-05,0xFF,0xFF
"SPI","disable",0.0216003,2.00000004e-08,,
"SPI","enable",0.02163622,1.99999999e-08,,
"SPI","result",0.0216457,1.5e-05,0xEF,0xFF
"SPI","result",0.02167414,1.5e-05,0x8D,0xFF
"SPI","result",0.0217026,1.498e-05,0xC7,0xFF
"SPI","result",0.02173104,1.498e-05,0x20,0xFF
"SPI","result",0.02175948,1.498e-05,0xC3,0xFF
"SPI","result",0.02180912,1.498e-05,0x90,0xFF
"SPI","result",0.02183756,1.498e-05,0x87,0xFF
"SPI","result",0.021866,1.5e-05,0x4D,0xFF
"SPI","disable",0.0218907,1.99999995e-08,,
"SPI","enable",0.02189994,1.99999999e-08,,
"SPI","result",0.02190592,1.5e-05,0x44,0xFF
"SPI","result",0.02193286,1.5e-05,0xFF,0x00
"SPI","disable",0.02195582,1.99999999e-08,,
"SPI","enable",0.02195706,1.99999999e-08,,
"SPI","result",0.02196306,1.498e-05,0x44,0xFF
"SPI","result",0.02199,1.498e-05,0xFF,0xFF
"SPI","disable",0.0220132,1.99999999e-08,,
"SPI","enable",0.02204912,1.99999999e-08,,
"SPI","result",0.02205862,1.498e-05,0xEF,0xFF
"SPI","result",0.02208706,1.498e-05,0x00,0xFF
"SPI","result",0.02213696,1.498e-05,0xAB,0xFF
"SPI","result",0.0221654,1.5e-05,0x7F,0xFF
"SPI","result",0.02219384,1.5e-05,0x27,0xFF
"SPI","result",0.0222223,1.498e-05,0x02,0xFF
"SPI","result",0.02225074,1.498e-05,0xC6,0xFF
"SPI","result",0.02227918,1.498e-05,0xA0,0xFF
"SPI","disable",0.02230388,1.99999999e-08,,
"SPI","enable",0.0223131,1.99999999e-08,,
"SPI","result",0.0223191,1.498e-05,0x44,0xFF
"SPI","result",0.02234604,1.498e-05,0xFF,0x00
"SPI","disable",0.02236898,1.99999995e-08,,
"SPI","enable",0.02237024,1.99999999e-08,,
"SPI","result",0.02237622,1.5e-05,0x44,0xFF
"SPI","result",0.02240318,1.498e-05,0xFF,0xFF
"SPI","disable",0.02242638,2.00000004e-08,,
"SPI","enable",0.02248376,1.99999999e-08,,
"SPI","result",0.02249324,1.498e-05,0xE7,0xFF
"SPI","result",0.02252168,1.5e-05,0x23,0xFF
"SPI","result",0.02255012,1.5e-05,0xA6,0xFF
"SPI","result",0.02257856,1.5e-05,0xA6,0xFF
"SPI","result",0.02260702,1.498e-05,0xA4,0xFF
"SPI","result",0.02263546,1.498e-05,0x27,0xFF
"SPI","result",0.0226639,1.498e-05,0x11,0xFF
"SPI","result",0.02269234,1.498e-05,0x7D,0xFF
"SPI","disable",0.02271704,1.99999999e-08,,
"SPI","enable",0.02272626,2.00000004e-08,,
"SPI","result",0.02273226,1.498e-05,0x44,0xFF
"SPI","result",0.0227592,1.5e-05,0xFF,0x00
"SPI","disable",0.02279564,1.99999999e-08,,
"SPI","enable",0.02279688,1.99999999e-08,,
"SPI","result",0.02280286,1.5e-05,0x44,0xFF
"SPI","result",0.02282982,1.498e-05,0xFF,0xFF
"SPI","disable",0.02285302,1.99999999e-08,,
"SPI","enable",0.02288894,1.99999995e-08,,
"SPI","result",0.02289842,1.498e-05,0xEF,0xFF
"SPI","result",0.02292686,1.5e-05,0xB3,0xFF
"SPI","result",0.02295532,1.498e-05,0xF1,0xFF
"SPI","result",0.02298376,1.498e-05,0x9E,0xFF
"SPI","result",0.0230122,1.498e-05,0x6A,0xFF
"SPI","result",0.02304064,1.498e-05,0xB3,0xFF
"SPI","result",0.02306908,1.498e-05,0x19,0xFF
"SPI","result",0.02311872,1.5e-05,0xAF,0xFF
"SPI","disable",0.02314342,2.00000004e-08,,
"SPI","enable",0.02315266,1.99999999e-08,,
"SPI","result",0.02315864,1.5e-05,0x44,0xFF
"SPI","result",0.0231856,1.498e-05,0xFF,0x00
"SPI","disable",0.02320854,1.99999999e-08,,
"SPI","enable",0.0232098,1.99999999e-08,,
"SPI","result",0.02321578,1.5e-05,0x44,0xFF
"SPI","result",0.02324272,1.5e-05,0xFF,0xFF
"SPI","disable",0.02326592,1.99999995e-08,,
"SPI","enable",0.02330186,1.99999999e-08,,
"SPI","result",0.02331134,1.498e-05,0xE7,0xFF
"SPI","result",0.02333978,1.5e-05,0xAB,0xFF
"SPI","result",0.02345456,1.498e-05,0xF5,0xFF
"SPI","result",0.023483,1.498e-05,0x15,0xFF
"SPI","result",0.02351144,1.498e-05,0x78,0xFF
"SPI","result",0.02353988,1.498e-05,0x5E,0xFF
"SPI","result",0.02356832,1.498e-05,0x48,0xFF
"SPI","result",0.02359676,1.5e-05,0xF8,0xFF
"SPI","disable",0.02362146,2.00000004e-08,,
"SPI","enable",0.0236307,1.99999999e-08,,
"SPI","result",0.02363668,1.5e-05,0x44,0xFF
"SPI","result",0.02366364,1.498e-05,0xFF,0x00
"SPI","disable",0.02368658,1.99999999e-08,,
"SPI","enable",0.02368784,1.99999999e-08,,
"SPI","result",0.02369382,1.5e-05,0x44,0xFF
"SPI","result",0.02372076,1.5e-05,0xFF,0xFF
"SPI","disable",0.02374396,1.99999995e-08,,
"SPI","enable",0.02380186,1.99999999e-08,,
"SPI","result",0.02381134,1.498e-05,0xEF,0xFF
"SPI","result",0.02383978,1.498e-05,0x5B,0xFF
"SPI","result",0.02386822,1.498e-05,0xB1,0xFF
"SPI","result",0.02389666,1.498e-05,0x2E,0xFF
"SPI","result",0.0239251,1.498e-05,0xAF,0xFF
"SPI","result",0.02395354,1.498e-05,0x2A,0xFF
"SPI","result",0.02398198,1.498e-05,0xFF,0xFF
"SPI","result",0.02401042,1.498e-05,0x16,0xFF
"SPI","disable",0.02403512,2.00000004e-08,,
"SPI","enable",0.02404434,1.99999999e-08,,
"SPI","result",0.02405034,1.498e-05,0x44,0xFF
"SPI","result",0.02407728,1.5e-05,0xFF,0x00
"SPI","disable",0.02410548,2.00000004e-08,,
"SPI","enable",0.02410672,2.00000004e-08,,
"SPI","result",0.02411272,1.498e-05,0x44,0xFF
"SPI","result",0.02413966,1.5e-05,0xFF,0xFF
"SPI","disable",0.02416286,1.99999999e-08,,
"SPI","enable",0.0241988,2.00000004e-08,,
"SPI","result",0.02420828,1.498e-05,0xE7,0xFF
"SPI","result",0.02423672,1.498e-05,0x30,0xFF
"SPI","result",0.02426516,1.5e-05,0x62,0xFF
"SPI","result",0.0242936,1.5e-05,0x5C,0xFF
"SPI","result",0.02432204,1.5e-05,0x82,0xFF
"SPI","result",0.0243505,1.498e-05,0x7A,0xFF
"SPI","result",0.02437894,1.498e-05,0x3F,0xFF
"SPI","result",0.0244286,1.498e-05,0x83,0xFF
"SPI","disable",0.02445328,1.99999999e-08,,
"SPI","enable",0.02446252,1.99999999e-08,,
"SPI","result",0.02446852,1.498e-05,0x44,0xFF
"SPI","result",0.02449546,1.498e-05,0xFF,0x00
"SPI","disable",0.02451842,1.99999995e-08,,
"SPI","enable",0.02451966,1.99999995e-08,,
"SPI","result",0.02452564,1.5e-05,0x44,0xFF
"SPI","result",0.0245526,1.498e-05,0xFF,0xFF
"SPI","disable",0.0245758,1.99999999e-08,,
"SPI","enable",0.02461172,2.00000004e-08,,
"SPI","result",0.02462122,1.498e-05,0xEF,0xFF
"SPI","result",0.02464966,1.498e-05,0x91,0xFF
"SPI","result",0.0246781,1.5e-05,0xA7,0xFF
"SPI","result",0.02470654,1.5e-05,0xD3,0xFF
"SPI","result",0.0247562,1.5e-05,0x1B,0xFF
"SPI","result",0.02478464,1.5e-05,0x64,0xFF
"SPI","result",0.02481308,1.5e-05,0x85,0xFF
"SPI","result",0.02484154,1.498e-05,0xBE,0xFF
"SPI","disable",0.02486624,1.99999999e-08,,
"SPI","enable",0.02487548,1.99999995e-08,,
"SPI","result",0.02488146,1.5e-05,0x44,0xFF
"SPI","result",0.02490842,1.498e-05,0xFF,0x00
"SPI","disable",0.02493136,1.99999999e-08,,
"SPI","enable",0.02493262,1.99999999e-08,,
"SPI","result",0.0249386,1.5e-05,0x44,0xFF
"SPI","result",0.02496556,1.498e-05,0xFF,0xFF
"SPI","disable",0.02498876,2.00000004e-08,,
"SPI","enable",0.0250247,1.99999999e-08,,
"SPI","result",0.02503418,1.498e-05,0xE7,0xFF
"SPI","result",0.02508408,1.498e-05,0x4D,0xFF
"SPI","result",0.02511252,1.498e-05,0x81,0xFF
"SPI","result",0.02514096,1.5e-05,0x94,0xFF
"SPI","result",0.02516942,1.498e-05,0xE4,0xFF
"SPI","result",0.02519786,1.498e-05,0xAA,0xFF
"SPI","result",0.0252263,1.5e-05,0xE8,0xFF
"SPI","result",0.02525476,1.498e-05,0xDB,0xFF
"SPI","disable",0.02527946,1.99999999e-08,,
"SPI","enable",0.02528868,1.99999999e-08,,
"SPI","result",0.02529468,1.498e-05,0x44,0xFF
"SPI","result",0.02532162,1.5e-05,0xFF,0x00
"SPI","disable",0.02534458,1.99999999e-08,,
"SPI","enable",0.02534582,1.99999999e-08,,
"SPI","result",0.02535182,1.498e-05,0x44,0xFF
"SPI","result",0.02537876,1.5e-05,0xFF,0xFF
"SPI","disable",0.0254893,2.00000004e-08,,
"SPI","enable",0.02552522,1.99999999e-08,,
"SPI","result",0.0255347,1.498e-05,0xEF,0xFF
"SPI","result",0.02556314,1.498e-05,0xA0,0xFF
"SPI","result",0.02559158,1.498e-05,0xCC,0xFF
"SPI","result",0.02562002,1.498e-05,0x4A,0xFF
"SPI","result",0.02564846,1.498e-05,0x23,0xFF
"SPI","result",0.0256769,1.5e-05,0xA5,0xFF
"SPI","result",0.02570534,1.5e-05,0x7E,0xFF
"SPI","result",0.02575524,1.5e-05,0x36,0xFF
"SPI","disable",0.02577994,1.99999999e-08,,
"SPI","enable",0.02578918,1.99999999e-08,,
"SPI","result",0.02579516,1.5e-05,0x44,0xFF
"SPI","result",0.02582212,1.498e-05,0xFF,0x00
"SPI","disable",0.02584506,1.99999999e-08,,
"SPI","enable",0.02584632,1.99999995e-08,,
"SPI","result",0.0258523,1.5e-05,0x44,0xFF
"SPI","result",0.02587926,1.498e-05,0xFF,0xFF
"SPI","disable",0.02590246,2.00000004e-08,,
"SPI","enable",0.02593838,1.99999999e-08,,
"SPI","result",0.02594788,1.498e-05,0xEF,0xFF
"SPI","result",0.02597632,1.498e-05,0x0C,0xFF
"SPI","result",0.02600476,1.5e-05,0x72,0xFF
"SPI","result",0.0260332,1.5e-05,0x4C,0xFF
"SPI","result",0.0260831,1.5e-05,0xFB,0xFF
"SPI","result",0.02611156,1.498e-05,0x26,0xFF
"SPI","result",0.02614,1.498e-05,0x5A,0xFF
"SPI","result",0.02616844,1.498e-05,0xEC,0xFF
"SPI","disable",0.02619314,2.00000004e-08,,
"SPI","enable",0.02620236,1.99999999e-08,,
"SPI","result",0.02620836,1.498e-05,0x44,0xFF
"SPI","result",0.0262353,1.5e-05,0xFF,0x00
"SPI","disable",0.02625826,1.99999999e-08,,
"SPI","enable",0.0262595,1.99999999e-08,,
"SPI","result",0.0262655,1.498e-05,0x44,0xFF
"SPI","result",0.02629244,1.5e-05,0xFF,0xFF
"SPI","disable",0.02631564,1.99999999e-08,,
"SPI","enable",0.02635158,1.99999999e-08,,
"SPI","result",0.02636106,1.498e-05,0xEF,0xFF
"SPI","result",0.02641096,1.498e-05,0x0E,0xFF
"SPI","result",0.02643938,1.5e-05,0x42,0xFF
"SPI","result",0.02646784,1.498e-05,0xFA,0xFF
"SPI","result",0.02649628,1.498e-05,0xAF,0xFF
"SPI","result",0.02652472,1.498e-05,0x49,0xFF
"SPI","result",0.02655316,1.498e-05,0xA0,0xFF
"SPI","result",0.0265816,1.498e-05,0xA8,0xFF
"SPI","disable",0.0266063,1.99999999e-08,,
"SPI","enable",0.02661552,1.99999999e-08,,
"SPI","result",0.02662152,1.498e-05,0x44,0xFF
"SPI","result",0.02664846,1.498e-05,0xFF,0x00
"SPI","disable",0.02667142,1.99999999e-08,,
"SPI","enable",0.02667266,1.99999999e-08,,
"SPI","result",0.02667864,1.5e-05,0x44,0xFF
"SPI","result",0.02672756,1.498e-05,0xFF,0xFF
"SPI","disable",0.02675076,1.99999999e-08,,
"SPI","enable",0.02678668,2.00000004e-08,,
"SPI","result",0.02679618,1.498e-05,0xE7,0xFF
"SPI","result",0.02682462,1.498e-05,0x6D,0xFF
"SPI","result",0.02685306,1.498e-05,0x12,0xFF
"SPI","result",0.0268815,1.498e-05,0xDF,0xFF
"SPI","result",0.02690994,1.498e-05,0x2B,0xFF
"SPI","result",0.02693838,1.5e-05,0x0C,0xFF
"SPI","result",0.02696682,1.5e-05,0x61,0xFF
"SPI","result",0.02699528,1.498e-05,0x58,0xFF
"SPI","disable",0.02701998,1.99999999e-08,,
"SPI","enable",0.0270292,1.99999999e-08,,
"SPI","result",0.02705616,1.498e-05,0x44,0xFF
"SPI","result",0.0270831,1.5e-05,0xFF,0x00
"SPI","disable",0.02710606,1.99999999e-08,,
"SPI","enable",0.0271073,1.99999995e-08,,
"SPI","result",0.0271133,1.498e-05,0x44,0xFF
"SPI","result",0.02714024,1.5e-05,0xFF,0xFF
"SPI","disable",0.02716344,2.00000004e-08,,
"SPI","enable",0.02719938,1.99999999e-08,,
"SPI","result",0.02720886,1.498e-05,0xEA,0xFF
"SPI","result",0.0272373,1.498e-05,0xB6,0xFF
"SPI","result",0.02726574,1.498e-05,0x9B,0xFF
"SPI","result",0.02729418,1.498e-05,0xDE,0xFF
"SPI","result",0.02732262,1.5e-05,0x81,0xFF
"SPI","result",0.02735106,1.5e-05,0xB9,0xFF
"SPI","result",0.02739274,1.498e-05,0xFF,0xFF
"SPI","result",0.02742118,1.498e-05,0xFF,0xFF
"SPI","disable",0.02744588,1.99999999e-08,,
"SPI","enable",0.02752298,1.99999999e-08,,
"SPI","result",0.02752896,1.5e-05,0x44,0xFF
"SPI","result",0.02755592,1.5e-05,0xFF,0xFF
"SPI","disable",0.02757912,1.99999999e-08,,
"SPI","enable",0.02761506,1.99999999e-08,,
"SPI","result",0.02762454,1.5e-05,0x05,0xFF
"SPI","result",0.027653,1.498e-05,0x04,0xFF
"SPI","result",0.02768144,1.498e-05,0xEB,0xFF
"SPI","result",0.0277231,1.498e-05,0xD8,0xFF
"SPI","result",0.02775154,1.5e-05,0x12,0xFF
"SPI","result",0.02777998,1.5e-05,0xD6,0xFF
"SPI","result",0.02780842,1.5e-05,0x8D,0xFF
"SPI","result",0.02783688,1.498e-05,0xE0,0xFF
"SPI","disable",0.02786156,2.00000004e-08,,
"SPI","enable",0.0278708,1.99999999e-08,,
"SPI","result",0.02787678,1.5e-05,0x44,0xFF
"SPI","result",0.02790374,1.498e-05,0xFF,0x00
"SPI","disable",0.02792668,2.00000004e-08,,
"SPI","enable",0.02792794,1.99999999e-08,,
"SPI","result",0.02793392,1.498e-05,0x44,0xFF
"SPI","result",0.02796086,1.5e-05,0xFF,0xFF
"SPI","disable",0.02798406,1.99999999e-08,,
"SPI","enable",0.0280412,1.99999999e-08,,
"SPI","result",0.02805068,1.5e-05,0xEC,0xFF
"SPI","result",0.02807912,1.5e-05,0x29,0xFF
"SPI","result",0.02810758,1.498e-05,0x66,0xFF
"SPI","result",0.02813602,1.498e-05,0x4B,0xFF
"SPI","result",0.02816446,1.498e-05,0xDE,0xFF
"SPI","result",0.0281929,1.5e-05,0xB7,0xFF
"SPI","result",0.02822134,1.5e-05,0xDE,0xFF
"SPI","result",0.0282498,1.498e-05,0x36,0xFF
"SPI","disable",0.0282745,1.99999999e-08,,
"SPI","enable",0.02828372,1.99999995e-08,,
"SPI","result",0.0282897,1.5e-05,0x44,0xFF
"SPI","result",0.02831666,1.5e-05,0xFF,0x00
"SPI","disable",0.02833962,1.99999999e-08,,
"SPI","enable",0.02834086,1.99999999e-08,,
"SPI","result",0.02836806,1.498e-05,0x44,0xFF
"SPI","result",0.028395,1.5e-05,0xFF,0xFF
"SPI","disable",0.0284182,1.99999999e-08,,
"SPI","enable",0.02845414,1.99999999e-08,,
"SPI","result",0.02846362,1.5e-05,0x05,0xFF
"SPI","result",0.02849208,1.498e-05,0x0D,0xFF
"SPI","result",0.02852052,1.498e-05,0x28,0xFF
"SPI","result",0.02854896,1.498e-05,0xB9,0xFF
"SPI","result",0.0285774,1.5e-05,0x0A,0xFF
"SPI","result",0.02860584,1.5e-05,0x89,0xFF
"SPI","result",0.02863428,1.5e-05,0x31,0xFF
"SPI","result",0.02866274,1.498e-05,0x1A,0xFF
"SPI","disable",0.02870466,2.00000004e-08,,
"SPI","enable",0.02871388,2.00000004e-08,,
"SPI","result",0.02871988,1.498e-05,0x44,0xFF
"SPI","result",0.02874682,1.5e-05,0xFF,0x00
"SPI","disable",0.02876978,2.00000004e-08,,
"SPI","enable",0.02877102,2.00000004e-08,,
"SPI","result",0.02877702,1.498e-05,0x44,0xFF
"SPI","result",0.02880398,1.498e-05,0xFF,0xFF
"SPI","disable",0.02882718,1.99999999e-08,,
"SPI","enable",0.02886086,1.99999999e-08,,
"SPI","result",0.02887036,1.498e-05,0x02,0xFF
"SPI","result",0.0288988,1.5e-05,0x81,0xFF
"SPI","result",0.02892724,1.5e-05,0x01,0xFF
"SPI","result",0.0289557,1.498e-05,0x01,0xFF
"SPI","result",0.02898414,1.5e-05,0x86,0xFF
"SPI","result",0.02903406,1.498e-05,0xA0,0xFF
"SPI","result",0.0290625,1.5e-05,0x00,0xFF
"SPI","disable",0.0290872,1.99999999e-08,,
"SPI","enable",0.02909644,1.99999999e-08,,
"SPI","result",0.02910242,1.5e-05,0x44,0xFF
"SPI","result",0.02912938,1.498e-05,0xFF,0x00
"SPI","disable",0.02915232,1.99999999e-08,,
"SPI","enable",0.02915358,1.99999999e-08,,
"SPI","result",0.02915956,1.5e-05,0x44,0xFF
"SPI","result",0.02918652,1.498e-05,0xFF,0x00
"SPI","disable",0.02920946,1.99999999e-08,,
"SPI","enable",0.02921072,1.99999999e-08,,
"SPI","result",0.0292167,1.5e-05,0x44,0xFF
"SPI","result",0.02924366,1.498e-05,0xFF,0x00
"SPI","disable",0.0292666,1.99999995e-08,,
"SPI","enable",0.02926786,1.99999999e-08,,
"SPI","result",0.02927384,1.5e-05,0x44,0xFF
"SPI","result",0.0293008,1.498e-05,0xFF,0x00
"SPI","disable",0.02932374,1.99999999e-08,,
"SPI","enable",0.029325,1.99999995e-08,,
"SPI","result",0.0293522,1.498e-05,0x44,0xFF
"SPI","result",0.02937914,1.5e-05,0xFF,0x00
"SPI","disable",0.0294021,1.99999999e-08,,
"SPI","enable",0.02940334,1.99999999e-08,,
"SPI","result",0.02940934,1.498e-05,0x44,0xFF
"SPI","result",0.02943628,1.5e-05,0xFF,0x00
"SPI","disable",0.02945924,1.99999999e-08,,
"SPI","enable",0.02946048,1.99999995e-08,,
"SPI","result",0.02946648,1.498e-05,0x44,0xFF
"SPI","result",0.02949342,1.498e-05,0xFF,0x00
"SPI","disable",0.02957276,2.00000004e-08,,
"SPI","enable",0.029574,2.00000004e-08,,
"SPI","result",0.02958,1.498e-05,0x44,0xFF
"SPI","result",0.02960694,1.498e-05,0xFF,0x00
"SPI","disable",0.0296299,2.00000004e-08,,
"SPI","enable",0.02963114,1.99999999e-08,,
"SPI","result",0.02963714,1.498e-05,0x44,0xFF
"SPI","result",0.02968528,1.5e-05,0xFF,0x00
"SPI","disable",0.02970824,1.99999995e-08,,
"SPI","enable",0.02970948,2.00000004e-08,,
"SPI","result",0.02971548,1.498e-05,0x44,0xFF
"SPI","result",0.02974242,1.5e-05,0xFF,0x00
"SPI","disable",0.02976538,2.00000004e-08,,
"SPI","enable",0.02976662,2.00000004e-08,,
"SPI","result",0.02977262,1.5e-05,0x44,0xFF
"SPI","result",0.02979958,1.498e-05,0xFF,0x00
"SPI","disable",0.02982254,1.99999999e-08,,
"SPI","enable",0.02982378,1.99999999e-08,,
"SPI","result",0.02982978,1.498e-05,0x44,0xFF
"SPI","result",0.02985672,1.498e-05,0xFF,0x00
"SPI","disable",0.02987968,1.99999999e-08,,
"SPI","enable",0.02988092,1.99999999e-08,,
"SPI","result",0.02988692,1.498e-05,0x44,0xFF
"SPI","result",0.02991386,1.498e-05,0xFF,0x00
"SPI","disable",0.02993682,1.99999999e-08,,
"SPI","enable",0.02993806,1.99999999e-08,,
"SPI","result",0.02994406,1.498e-05,0x44,0xFF
"SPI","result",0.029971,1.5e-05,0xFF,0x00
"SPI","disable",0.03001542,2.00000004e-08,,
"SPI","enable",0.03001666,2.00000004e-08,,
"SPI","result",0.03002266,1.498e-05,0x44,0xFF
"SPI","result",0.0300496,1.5e-05,0xFF,0x00
"SPI","disable",0.03007256,2.00000004e-08,,
"SPI","enable",0.0300738,2.00000004e-08,,
"SPI","result",0.0300798,1.498e-05,0x44,0xFF
"SPI","result",0.03010674,1.5e-05,0xFF,0x00
"SPI","disable",0.0301297,2.00000004e-08,,
"SPI","enable",0.03013094,1.99999999e-08,,
"SPI","result",0.03013694,1.498e-05,0x44,0xFF
"SPI","result",0.03016388,1.5e-05,0xFF,0x00
"SPI","disable",0.03018684,2.00000004e-08,,
"SPI","enable",0.03018808,2.00000004e-08,,
"SPI","result",0.03019408,1.5e-05,0x44,0xFF
"SPI","result",0.03022102,1.5e-05,0xFF,0x00
"SPI","disable",0.03024398,2.00000004e-08,,
"SPI","enable",0.03024524,2.00000004e-08,,
"SPI","result",0.03025122,1.5e-05,0x44,0xFF
"SPI","result",0.03027816,1.5e-05,0xFF,0x00
"SPI","disable",0.03030112,1.99999995e-08,,
"SPI","enable",0.03030236,1.99999999e-08,,
"SPI","result",0.03030836,1.498e-05,0x44,0xFF
"SPI","result",0.03034878,1.5e-05,0xFF,0x00
"SPI","disable",0.03037174,1.99999999e-08,,
"SPI","enable",0.03037298,1.99999999e-08,,
"SPI","result",0.03037898,1.498e-05,0x44,0xFF
"SPI","result",0.03040592,1.5e-05,0xFF,0x00
"SPI","disable",0.03042888,1.99999999e-08,,
"SPI","enable",0.03043012,1.99999999e-08,,
"SPI","result",0.03043612,1.498e-05,0x44,0xFF
"SPI","result",0.03046306,1.5e-05,0xFF,0x00
"SPI","disable",0.03048602,1.99999999e-08,,
"SPI","enable",0.03048726,1.99999995e-08,,
"SPI","result",0.03049326,1.498e-05,0x44,0xFF
"SPI","result",0.0305202,1.5e-05,0xFF,0x00
"SPI","disable",0.03054316,1.99999999e-08,,
"SPI","enable",0.0305444,1.99999999e-08,,
"SPI","result",0.0305504,1.498e-05,0x44,0xFF
"SPI","result",0.03057734,1.5e-05,0xFF,0x00
"SPI","disable",0.0306003,1.99999999e-08,,
"SPI","enable",0.03060154,1.99999999e-08,,
"SPI","result",0.03060754,1.498e-05,0x44,0xFF
"SPI","result",0.03063448,1.5e-05,0xFF,0x00
"SPI","disable",0.03067092,1.99999999e-08,,
"SPI","enable",0.03067216,1.99999999e-08,,
"SPI","result",0.03067814,1.5e-05,0x44,0xFF
"SPI","result",0.0307051,1.498e-05,0xFF,0x00
"SPI","disable",0.03072806,1.99999999e-08,,
"SPI","enable",0.0307293,1.99999999e-08,,
"SPI","result",0.03073528,1.5e-05,0x44,0xFF
"SPI","result",0.03076224,1.498e-05,0xFF,0x00
"SPI","disable",0.0307852,1.99999999e-08,,
"SPI","enable",0.03078644,1.99999999e-08,,
"SPI","result",0.03079244,1.498e-05,0x44,0xFF
"SPI","result",0.03081938,1.5e-05,0xFF,0x00
"SPI","disable",0.03084234,1.99999995e-08,,
"SPI","enable",0.03084358,1.99999995e-08,,
"SPI","result",0.03084958,1.498e-05,0x44,0xFF
"SPI","result",0.03087652,1.498e-05,0xFF,0x00
"SPI","disable",0.03089948,1.99999999e-08,,
"SPI","enable",0.03090072,1.99999999e-08,,
"SPI","result",0.0309067,1.5e-05,0x44,0xFF
"SPI","result",0.03093366,1.498e-05,0xFF,0x00
"SPI","disable",0.03095662,1.99999999e-08,,
"SPI","enable",0.03095786,1.99999999e-08,,
"SPI","result",0.03096384,1.5e-05,0x44,0xFF
"SPI","result",0.03100402,1.498e-05,0xFF,0x00
"SPI","disable",0.03102698,1.99999999e-08,,
"SPI","enable",0.03102822,1.99999999e-08,,
"SPI","result",0.0310342,1.5e-05,0x44,0xFF
"SPI","result",0.03106116,1.498e-05,0xFF,0x00
"SPI","disable",0.0310841,2.00000004e-08,,
"SPI","enable",0.03108536,1.99999999e-08,,
"SPI","result",0.03109134,1.5e-05,0x44,0xFF
"SPI","result",0.0311183,1.498e-05,0xFF,0x00
"SPI","disable",0.03114124,1.99999999e-08,,
"SPI","enable",0.03114248,1.99999999e-08,,
"SPI","result",0.03114848,1.498e-05,0x44,0xFF
"SPI","result",0.03117542,1.5e-05,0xFF,0x00
"SPI","disable",0.03119838,2.00000004e-08,,
"SPI","enable",0.03119962,2.00000004e-08,,
"SPI","result",0.03120562,1.498e-05,0x44,0xFF
"SPI","result",0.03123258,1.498e-05,0xFF,0x00
"SPI","disable",0.03125552,2.00000004e-08,,
"SPI","enable",0.03125678,1.99999999e-08,,
"SPI","result",0.03126276,1.5e-05,0x44,0xFF
"SPI","result",0.03128972,1.498e-05,0xFF,0x00
"SPI","disable",0.0313264,1.99999999e-08,,
"SPI","enable",0.03132764,1.99999999e-08,,
"SPI","result",0.03133364,1.498e-05,0x44,0xFF
"SPI","result",0.03136058,1.5e-05,0xFF,0x00
"SPI","disable",0.03138354,2.00000004e-08,,
"SPI","enable",0.03138478,2.00000004e-08,,
"SPI","result",0.03139078,1.498e-05,0x44,0xFF
"SPI","result",0.03141772,1.5e-05,0xFF,0x00
"SPI","disable",0.03144068,2.00000004e-08,,
"SPI","enable",0.03144192,2.00000004e-08,,
"SPI","result",0.03144792,1.5e-05,0x44,0xFF
"SPI","result",0.03147488,1.498e-05,0xFF,0x00
"SPI","disable",0.03149782,2.00000004e-08,,
"SPI","enable",0.03149908,1.99999999e-08,,
"SPI","result",0.03150506,1.5e-05,0x44,0xFF
"SPI","result",0.03153202,1.5e-05,0xFF,0x00
"SPI","disable",0.03161936,1.99999999e-08,,
"SPI","enable",0.0316206,1.99999999e-08,,
"SPI","result",0.0316266,1.498e-05,0x44,0xFF
"SPI","result",0.03165878,1.5e-05,0xFF,0x00
"SPI","disable",0.03168174,1.99999999e-08,,
"SPI","enable",0.031683,1.99999999e-08,,
"SPI","result",0.03168898,1.5e-05,0x44,0xFF
"SPI","result",0.03171594,1.498e-05,0xFF,0x00
"SPI","disable",0.03173888,2.00000004e-08,,
"SPI","enable",0.03174014,1.99999995e-08,,
"SPI","result",0.03174612,1.5e-05,0x44,0xFF
"SPI","result",0.03177308,1.498e-05,0xFF,0x00
"SPI","disable",0.03179602,2.00000004e-08,,
"SPI","enable",0.03179728,1.99999999e-08,,
"SPI","result",0.03180326,1.5e-05,0x44,0xFF
"SPI","result",0.03183022,1.498e-05,0xFF,0x00
"SPI","disable",0.03185316,2.00000004e-08,,
"SPI","enable",0.03185442,1.99999999e-08,,
"SPI","result",0.0318604,1.5e-05,0x44,0xFF
"SPI","result",0.03188736,1.498e-05,0xFF,0x00
"SPI","disable",0.0319103,1.99999999e-08,,
"SPI","enable",0.03191156,2.00000004e-08,,
"SPI","result",0.03191754,1.5e-05,0x44,0xFF
"SPI","result",0.0319445,1.498e-05,0xFF,0x00
"SPI","disable",0.03198492,2.00000004e-08,,
"SPI","enable",0.03198616,1.99999999e-08,,
"SPI","result",0.03199216,1.498e-05,0x44,0xFF
"SPI","result",0.0320191,1.5e-05,0xFF,0x00
"SPI","disable",0.03204206,2.00000004e-08,,
"SPI","enable",0.0320433,2.00000004e-08,,
"SPI","result",0.0320493,1.498e-05,0x44,0xFF
"SPI","result",0.03207624,1.5e-05,0xFF,0x00
"SPI","disable",0.0320992,2.00000004e-08,,
"SPI","enable",0.03210044,2.00000004e-08,,
"SPI","result",0.03210644,1.498e-05,0x44,0xFF
"SPI","result",0.03213338,1.5e-05,0xFF,0x00
"SPI","disable",0.03215634,1.99999999e-08,,
"SPI","enable",0.03215758,2.00000004e-08,,
"SPI","result",0.03216358,1.498e-05,0x44,0xFF
"SPI","result",0.03219052,1.5e-05,0xFF,0x00
"SPI","disable",0.03221348,2.00000004e-08,,
"SPI","enable",0.03221472,2.00000004e-08,,
"SPI","result",0.03222072,1.498e-05,0x44,0xFF
"SPI","result",0.03224766,1.498e-05,0xFF,0x00
"SPI","disable",0.0322706,1.99999999e-08,,
"SPI","enable",0.03227184,1.99999999e-08,,
"SPI","result",0.03227784,1.498e-05,0x44,0xFF
"SPI","result",0.03231826,1.498e-05,0xFF,0x00
"SPI","disable",0.03234122,2.00000004e-08,,
"SPI","enable",0.03234246,2.00000004e-08,,
"SPI","result",0.03234844,1.5e-05,0x44,0xFF
"SPI","result",0.0323754,1.498e-05,0xFF,0x00
"SPI","disable",0.03239834,1.99999999e-08,,
"SPI","enable",0.0323996,2.00000004e-08,,
"SPI","result",0.03240558,1.5e-05,0x44,0xFF
"SPI","result",0.03243252,1.5e-05,0xFF,0x00
"SPI","disable",0.03245548,1.99999995e-08,,
"SPI","enable",0.03245672,1.99999999e-08,,
"SPI","result",0.03246272,1.498e-05,0x44,0xFF
"SPI","result",0.03248966,1.498e-05,0xFF,0x00
"SPI","disable",0.03251262,1.99999999e-08,,
"SPI","enable",0.03251386,1.99999999e-08,,
"SPI","result",0.03251984,1.5e-05,0x44,0xFF
"SPI","result",0.03254678,1.5e-05,0xFF,0x00
"SPI","disable",0.03256974,1.99999999e-08,,
"SPI","enable",0.03257098,1.99999999e-08,,
"SPI","result",0.03257698,1.498e-05,0x44,0xFF
"SPI","result",0.03260392,1.5e-05,0xFF,0x00
"SPI","disable",0.03264036,2.00000004e-08,,
"SPI","enable",0.0326416,2.00000004e-08,,
"SPI","result",0.0326476,1.498e-05,0x44,0xFF
"SPI","result",0.03267454,1.498e-05,0xFF,0x00
"SPI","disable",0.0326975,2.00000004e-08,,
"SPI","enable",0.03269874,2.00000004e-08,,
"SPI","result",0.03270474,1.498e-05,0x44,0xFF
"SPI","result",0.03273168,1.5e-05,0xFF,0x00
"SPI","disable",0.03275464,2.00000004e-08,,
"SPI","enable",0.03275588,1.99999999e-08,,
"SPI","result",0.03276188,1.498e-05,0x44,0xFF
"SPI","result",0.03278882,1.498e-05,0xFF,0x00
"SPI","disable",0.03281178,1.99999999e-08,,
"SPI","enable",0.03281302,1.99999995e-08,,
"SPI","result",0.032819,1.5e-05,0x44,0xFF
"SPI","result",0.03284596,1.498e-05,0xFF,0x00
"SPI","disable",0.0328689,1.99999999e-08,,
"SPI","enable",0.03287016,1.99999999e-08,,
"SPI","result",0.03287614,1.5e-05,0x44,0xFF
"SPI","result",0.0329031,1.498e-05,0xFF,0x00
"SPI","disable",0.03292604,1.99999999e-08,,
"SPI","enable",0.0329273,1.99999999e-08,,
"SPI","result",0.03293328,1.5e-05,0x44,0xFF
"SPI","result",0.0329737,1.498e-05,0xFF,0x00
"SPI","disable",0.03299666,2.00000004e-08,,
"SPI","enable",0.0329979,2.00000004e-08,,
"SPI","result",0.03300388,1.5e-05,0x44,0xFF
"SPI","result",0.03303084,1.498e-05,0xFF,0x00
"SPI","disable",0.03305378,1.99999999e-08,,
"SPI","enable",0.03305502,1.99999999e-08,,
"SPI","result",0.03306102,1.498e-05,0x44,0xFF
"SPI","result",0.03308796,1.498e-05,0xFF,0x00
"SPI","disable",0.03311092,1.99999999e-08,,
"SPI","enable",0.03311216,1.99999995e-08,,
"SPI","result",0.03311814,1.5e-05,0x44,0xFF
"SPI","result",0.0331451,1.498e-05,0xFF,0x00
"SPI","disable",0.03316804,1.99999999e-08,,
"SPI","enable",0.0331693,1.99999999e-08,,
"SPI","result",0.03317528,1.5e-05,0x44,0xFF
"SPI","result",0.03320222,1.5e-05,0xFF,0x00
"SPI","disable",0.03322518,1.99999999e-08,,
"SPI","enable",0.03322642,1.99999999e-08,,
"SPI","result",0.03323242,1.498e-05,0x44,0xFF
"SPI","result",0.03325936,1.498e-05,0xFF,0x00
"SPI","disable",0.03329978,1.99999995e-08,,
"SPI","enable",0.03330102,1.99999995e-08,,
"SPI","result",0.03330702,1.498e-05,0x44,0xFF
"SPI","result",0.03333396,1.5e-05,0xFF,0x00
"SPI","disable",0.03335692,1.99999999e-08,,
"SPI","enable",0.03335816,1.99999999e-08,,
"SPI","result",0.03336416,1.498e-05,0x44,0xFF
"SPI","result",0.0333911,1.498e-05,0xFF,0x00
"SPI","disable",0.03341406,1.99999999e-08,,
"SPI","enable",0.0334153,1.99999999e-08,,
"SPI","result",0.03342128,1.5e-05,0x44,0xFF
"SPI","result",0.03344824,1.498e-05,0xFF,0x00
"SPI","disable",0.03347118,1.99999999e-08,,
"SPI","enable",0.03347244,1.99999999e-08,,
"SPI","result",0.03347842,1.5e-05,0x44,0xFF
"SPI","result",0.03350536,1.5e-05,0xFF,0x00
"SPI","disable",0.03352832,2.00000004e-08,,
"SPI","enable",0.03352956,1.99999999e-08,,
"SPI","result",0.03353556,1.5e-05,0x44,0xFF
"SPI","result",0.0335625,1.5e-05,0xFF,0x00
"SPI","disable",0.03367128,1.99999999e-08,,
"SPI","enable",0.03367254,1.99999999e-08,,
"SPI","result",0.03367852,1.498e-05,0x44,0xFF
"SPI","result",0.03370546,1.5e-05,0xFF,0x00
"SPI","disable",0.03372842,1.99999999e-08,,
"SPI","enable",0.03372966,1.99999999e-08,,
"SPI","result",0.03373566,1.498e-05,0x44,0xFF
"SPI","result",0.0337626,1.498e-05,0xFF,0x00
"SPI","disable",0.03378556,1.99999999e-08,,
"SPI","enable",0.0337868,1.99999995e-08,,
"SPI","result",0.03379278,1.5e-05,0x44,0xFF
"SPI","result",0.03381974,1.498e-05,0xFF,0x00
"SPI","disable",0.03384268,2.00000004e-08,,
"SPI","enable",0.03384392,2.00000004e-08,,
"SPI","result",0.03384992,1.498e-05,0x44,0xFF
"SPI","result",0.03387686,1.498e-05,0xFF,0x00
"SPI","disable",0.0338998,1.99999995e-08,,
"SPI","enable",0.03390106,2.00000004e-08,,
"SPI","result",0.03390704,1.498e-05,0x44,0xFF
"SPI","result",0.03395544,1.498e-05,0xFF,0x00
"SPI","disable",0.0339784,1.99999999e-08,,
"SPI","enable",0.03397964,1.99999999e-08,,
"SPI","result",0.03398562,1.5e-05,0x44,0xFF
"SPI","result",0.03401258,1.498e-05,0xFF,0x00
"SPI","disable",0.03403552,2.00000004e-08,,
"SPI","enable",0.03403678,1.99999999e-08,,
"SPI","result",0.03404276,1.5e-05,0x44,0xFF
"SPI","result",0.03406972,1.498e-05,0xFF,0x00
"SPI","disable",0.03409266,2.00000004e-08,,
"SPI","enable",0.03409392,1.99999999e-08,,
"SPI","result",0.0340999,1.5e-05,0x44,0xFF
"SPI","result",0.03412686,1.498e-05,0xFF,0x00
"SPI","disable",0.03414982,1.99999999e-08,,
"SPI","enable",0.03415106,1.99999999e-08,,
"SPI","result",0.03415706,1.498e-05,0x44,0xFF
"SPI","result",0.034184,1.5e-05,0xFF,0x00
"SPI","disable",0.03420696,1.99999999e-08,,
"SPI","enable",0.0342082,1.99999999e-08,,
"SPI","result",0.0342142,1.498e-05,0x44,0xFF
"SPI","result",0.03424114,1.5e-05,0xFF,0x00
"SPI","disable",0.03428156,1.99999995e-08,,
"SPI","enable",0.03428282,1.99999999e-08,,
"SPI","result",0.0342888,1.5e-05,0x44,0xFF
"SPI","result",0.03431574,1.5e-05,0xFF,0x00
"SPI","disable",0.0343387,1.99999999e-08,,
"SPI","enable",0.03433994,2.00000004e-08,,
"SPI","result",0.03434594,1.498e-05,0x44,0xFF
"SPI","result",0.03437288,1.5e-05,0xFF,0x00
"SPI","disable",0.03439584,2.00000004e-08,,
"SPI","enable",0.03439708,2.00000004e-08,,
"SPI","result",0.03440308,1.498e-05,0x44,0xFF
"SPI","result",0.03443002,1.498e-05,0xFF,0x00
"SPI","disable",0.03445298,2.00000004e-08,,
"SPI","enable",0.03445422,2.00000004e-08,,
"SPI","result",0.0344602,1.5e-05,0x44,0xFF
"SPI","result",0.03448716,1.498e-05,0xFF,0x00
"SPI","disable",0.0345101,1.99999999e-08,,
"SPI","enable",0.03451136,1.99999999e-08,,
"SPI","result",0.03451734,1.498e-05,0x44,0xFF
"SPI","result",0.03454428,1.5e-05,0xFF,0x00
"SPI","disable",0.03456724,1.99999999e-08,,
"SPI","enable",0.03456848,1.99999999e-08,,
"SPI","result",0.03457448,1.498e-05,0x44,0xFF
"SPI","result",0.03461464,1.5e-05,0xFF,0x00
"SPI","disable",0.0346376,1.99999999e-08,,
"SPI","enable",0.03463886,1.99999999e-08,,
"SPI","result",0.03464484,1.5e-05,0x44,0xFF
"SPI","result",0.0346718,1.498e-05,0xFF,0x00
"SPI","disable",0.03469474,1.99999999e-08,,
"SPI","enable",0.034696,2.00000004e-08,,
"SPI","result",0.03470198,1.5e-05,0x44,0xFF
"SPI","result",0.03472894,1.498e-05,0xFF,0x00
"SPI","disable",0.0347519,2.00000004e-08,,
"SPI","enable",0.03475314,1.99999999e-08,,
"SPI","result",0.03475912,1.5e-05,0x44,0xFF
"SPI","result",0.03478608,1.498e-05,0xFF,0x00
"SPI","disable",0.03480902,1.99999995e-08,,
"SPI","enable",0.03481028,1.99999999e-08,,
"SPI","result",0.03481626,1.498e-05,0x44,0xFF
"SPI","result",0.0348432,1.5e-05,0xFF,0x00
"SPI","disable",0.03486616,1.99999999e-08,,
"SPI","enable",0.0348674,1.99999999e-08,,
"SPI","result",0.0348734,1.498e-05,0x44,0xFF
"SPI","result",0.03490034,1.5e-05,0xFF,0x00
"SPI","disable",0.03493702,1.99999995e-08,,
"SPI","enable",0.03493826,1.99999999e-08,,
"SPI","result",0.03494426,1.498e-05,0x44,0xFF
"SPI","result",0.0349712,1.5e-05,0xFF,0x00
"SPI","disable",0.03499416,1.99999999e-08,,
"SPI","enable",0.0349954,1.99999999e-08,,
"SPI","result",0.0350014,1.498e-05,0x44,0xFF
"SPI","result",0.03502834,1.498e-05,0xFF,0x00
"SPI","disable",0.0350513,1.99999999e-08,,
"SPI","enable",0.03505254,1.99999999e-08,,
"SPI","result",0.03505852,1.5e-05,0x44,0xFF
"SPI","result",0.03508548,1.498e-05,0xFF,0x00
"SPI","disable",0.03510842,1.99999999e-08,,
"SPI","enable",0.03510966,2.00000004e-08,,
"SPI","result",0.03511566,1.498e-05,0x44,0xFF
"SPI","result",0.0351426,1.5e-05,0xFF,0x00
"SPI","disable",0.03516556,2.00000004e-08,,
"SPI","enable",0.03516682,1.99999995e-08,,
"SPI","result",0.0351728,1.5e-05,0x44,0xFF
"SPI","result",0.03519976,1.498e-05,0xFF,0x00
"SPI","disable",0.0352227,2.00000004e-08,,
"SPI","enable",0.03522396,1.99999999e-08,,
"SPI","result",0.03522994,1.5e-05,0x44,0xFF
"SPI","result",0.03527036,1.498e-05,0xFF,0x00
"SPI","disable",0.03529332,1.99999999e-08,,
"SPI","enable",0.03529456,1.99999995e-08,,
"SPI","result",0.03530054,1.5e-05,0x44,0xFF
"SPI","result",0.0353275,1.498e-05,0xFF,0x00
"SPI","disable",0.03535044,2.00000004e-08,,
"SPI","enable",0.0353517,1.99999999e-08,,
"SPI","result",0.03535768,1.5e-05,0x44,0xFF
"SPI","result",0.03538464,1.498e-05,0xFF,0x00
"SPI","disable",0.03540758,2.00000004e-08,,
"SPI","enable",0.03540884,1.99999999e-08,,
"SPI","result",0.03541482,1.5e-05,0x44,0xFF
"SPI","result",0.03544178,1.498e-05,0xFF,0x00
"SPI","disable",0.03546472,2.00000004e-08,,
"SPI","enable",0.03546598,1.99999999e-08,,
"SPI","result",0.03547196,1.5e-05,0x44,0xFF
"SPI","result",0.0354989,1.5e-05,0xFF,0x00
"SPI","disable",0.03552186,2.00000004e-08,,
"SPI","enable",0.0355231,2.00000004e-08,,
"SPI","result",0.0355291,1.498e-05,0x44,0xFF
"SPI","result",0.03555604,1.5e-05,0xFF,0x00
"SPI","disable",0.03559646,2.00000004e-08,,
"SPI","enable",0.03559772,1.99999999e-08,,
"SPI","result",0.0356037,1.5e-05,0x44,0xFF
"SPI","result",0.03570052,1.498e-05,0xFF,0x00
"SPI","disable",0.03572346,2.00000004e-08,,
"SPI","enable",0.0357247,2.00000004e-08,,
"SPI","result",0.0357307,1.498e-05,0x44,0xFF
"SPI","result",0.03575764,1.498e-05,0xFF,0x00
"SPI","disable",0.0357806,1.99999999e-08,,
"SPI","enable",0.03578184,2.00000004e-08,,
"SPI","result",0.03578782,1.5e-05,0x44,0xFF
"SPI","result",0.03581478,1.498e-05,0xFF,0x00
"SPI","disable",0.03583772,1.99999999e-08,,
"SPI","enable",0.03583896,1.99999999e-08,,
"SPI","result",0.03584496,1.498e-05,0x44,0xFF
"SPI","result",0.0358719,1.498e-05,0xFF,0x00
"SPI","disable",0.0359168,1.99999999e-08,,
"SPI","enable",0.03591806,1.99999999e-08,,
"SPI","result",0.03592404,1.498e-05,0x44,0xFF
"SPI","result",0.03595098,1.5e-05,0xFF,0x00
"SPI","disable",0.03597394,1.99999999e-08,,
"SPI","enable",0.03597518,1.99999999e-08,,
"SPI","result",0.03598118,1.498e-05,0x44,0xFF
"SPI","result",0.03600812,1.5e-05,0xFF,0x00
"SPI","disable",0.03603108,1.99999999e-08,,
"SPI","enable",0.03603232,1.99999999e-08,,
"SPI","result",0.03603832,1.498e-05,0x44,0xFF
"SPI","result",0.03606526,1.5e-05,0xFF,0x00
"SPI","disable",0.03608822,1.99999995e-08,,
"SPI","enable",0.03608946,1.99999995e-08,,
"SPI","result",0.03609546,1.498e-05,0x44,0xFF
"SPI","result",0.0361224,1.5e-05,0xFF,0x00
"SPI","disable",0.03614536,1.99999999e-08,,
"SPI","enable",0.0361466,1.99999999e-08,,
"SPI","result",0.0361526,1.498e-05,0x44,0xFF
"SPI","result",0.03617954,1.498e-05,0xFF,0x00
"SPI","disable",0.0362025,1.99999999e-08,,
"SPI","enable",0.03620374,1.99999999e-08,,
"SPI","result",0.03620974,1.498e-05,0x44,0xFF
"SPI","result",0.03625388,1.5e-05,0xFF,0x00
"SPI","disable",0.03627684,1.99999999e-08,,
"SPI","enable",0.03627808,2.00000004e-08,,
"SPI","result",0.03628408,1.498e-05,0x44,0xFF
"SPI","result",0.03631102,1.498e-05,0xFF,0x00
"SPI","disable",0.03633398,2.00000004e-08,,
"SPI","enable",0.03633522,2.00000004e-08,,
"SPI","result",0.03634122,1.498e-05,0x44,0xFF
"SPI","result",0.03636816,1.498e-05,0xFF,0x00
"SPI","disable",0.0363911,1.99999999e-08,,
"SPI","enable",0.03639236,2.00000004e-08,,
"SPI","result",0.03639834,1.5e-05,0x44,0xFF
"SPI","result",0.0364253,1.498e-05,0xFF,0x00
"SPI","disable",0.03644824,1.99999999e-08,,
"SPI","enable",0.03644948,1.99999999e-08,,
"SPI","result",0.03645548,1.498e-05,0x44,0xFF
"SPI","result",0.03648242,1.5e-05,0xFF,0x00
"SPI","disable",0.03650538,1.99999999e-08,,
"SPI","enable",0.03650662,1.99999995e-08,,
"SPI","result",0.03651262,1.498e-05,0x44,0xFF
"SPI","result",0.03653956,1.498e-05,0xFF,0x00
"SPI","disable",0.03657998,1.99999999e-08,,
"SPI","enable",0.03658122,1.99999999e-08,,
"SPI","result",0.03658722,1.498e-05,0x44,0xFF
"SPI","result",0.03661416,1.5e-05,0xFF,0x00
"SPI","disable",0.03663712,1.99999999e-08,,
"SPI","enable",0.03663836,1.99999999e-08,,
"SPI","result",0.03664436,1.498e-05,0x44,0xFF
"SPI","result",0.0366713,1.498e-05,0xFF,0x00
"SPI","disable",0.03669426,1.99999995e-08,,
"SPI","enable",0.0366955,1.99999999e-08,,
"SPI","result",0.03670148,1.5e-05,0x44,0xFF
"SPI","result",0.03672844,1.498e-05,0xFF,0x00
"SPI","disable",0.0367514,1.99999999e-08,,
"SPI","enable",0.03675264,1.99999999e-08,,
"SPI","result",0.03675864,1.498e-05,0x44,0xFF
"SPI","result",0.03678558,1.498e-05,0xFF,0x00
"SPI","disable",0.03680854,1.99999999e-08,,
"SPI","enable",0.03680978,1.99999999e-08,,
"SPI","result",0.03681576,1.5e-05,0x44,0xFF
"SPI","result",0.03684272,1.498e-05,0xFF,0x00
"SPI","disable",0.03686568,1.99999999e-08,,
"SPI","enable",0.03686692,1.99999999e-08,,
"SPI","result",0.03687292,1.498e-05,0x44,0xFF
"SPI","result",0.03691334,1.498e-05,0xFF,0x00
"SPI","disable",0.0369363,2.00000004e-08,,
"SPI","enable",0.03693754,2.00000004e-08,,
"SPI","result",0.03694352,1.5e-05,0x44,0xFF
"SPI","result",0.03697048,1.5e-05,0xFF,0x00
"SPI","disable",0.03699344,2.00000004e-08,,
"SPI","enable",0.03699468,2.00000004e-08,,
"SPI","result",0.03700068,1.498e-05,0x44,0xFF
"SPI","result",0.03702762,1.5e-05,0xFF,0x00
"SPI","disable",0.03705058,2.00000004e-08,,
"SPI","enable",0.03705182,1.99999999e-08,,
"SPI","result",0.03705782,1.498e-05,0x44,0xFF
"SPI","result",0.03708476,1.5e-05,0xFF,0xFF
"SPI","disable",0.03710798,1.99999995e-08,,
"SPI","enable",0.0371439,2.00000004e-08,,
"SPI","result",0.0371534,1.498e-05,0x13,0xFF
"SPI","result",0.03718184,1.498e-05,0x10,0xFF
"SPI","result",0.03723174,1.498e-05,0x0F,0xFF
"SPI","result",0.03726018,1.498e-05,0x07,0xFF
"SPI","result",0.03728862,1.498e-05,0x04,0xFF
"SPI","result",0.03731706,1.5e-05,0x00,0xFF
"SPI","result",0.0373455,1.5e-05,0x0B,0xFF
"SPI","result",0.03737396,1.498e-05,0x00,0xFF
"SPI","disable",0.03739864,1.99999995e-08,,
"SPI","enable",0.03740788,1.99999999e-08,,
"SPI","result",0.03741388,1.498e-05,0x44,0xFF
"SPI","result",0.03744082,1.498e-05,0xFF,0x00
"SPI","disable",0.03746378,1.99999999e-08,,
"SPI","enable",0.03746502,1.99999999e-08,,
"SPI","result",0.037471,1.5e-05,0x44,0xFF
"SPI","result",0.03749796,1.498e-05,0xFF,0xFF
"SPI","disable",0.03752116,2.00000004e-08,,
"SPI","enable",0.0375738,1.99999999e-08,,
"SPI","result",0.0375833,1.498e-05,0x11,0xFF
"SPI","result",0.03761174,1.498e-05,0x00,0xFF
"SPI","result",0.03764018,1.498e-05,0x02,0xFF
"SPI","result",0.03766862,1.498e-05,0x00,0xFF
"SPI","result",0.0377532,1.498e-05,0x62,0xFF
"SPI","result",0.03778164,1.5e-05,0x60,0xFF
"SPI","disable",0.03780634,1.99999999e-08,,
"SPI","enable",0.03781556,1.99999999e-08,,
"SPI","result",0.03782156,1.498e-05,0x44,0xFF
"SPI","result",0.0378485,1.5e-05,0xFF,0xFF
"SPI","disable",0.03789316,1.99999995e-08,,
"SPI","enable",0.03792236,1.99999999e-08,,
"SPI","result",0.03793186,1.498e-05,0x11,0xFF
"SPI","result",0.0379603,1.498e-05,0x00,0xFF
"SPI","result",0.03798874,1.5e-05,0x01,0xFF
"SPI","result",0.0380172,1.498e-05,0x03,0xFF
"SPI","result",0.03804564,1.498e-05,0x20,0xFF
"SPI","disable",0.03807034,1.99999995e-08,,
"SPI","enable",0.03807956,1.99999995e-08,,
"SPI","result",0.03808556,1.498e-05,0x44,0xFF
"SPI","result",0.0381125,1.5e-05,0xFF,0xFF
"SPI","disable",0.0381357,2.00000004e-08,,
"SPI","enable",0.0381649,1.99999999e-08,,
"SPI","result",0.03817438,1.5e-05,0x11,0xFF
"SPI","result",0.0382243,1.498e-05,0x01,0xFF
"SPI","result",0.03825274,1.498e-05,0x01,0xFF
"SPI","result",0.03828118,1.498e-05,0x00,0xFF
"SPI","result",0.03830962,1.5e-05,0x00,0xFF
"SPI","disable",0.03833432,1.99999999e-08,,
"SPI","enable",0.03834356,1.99999999e-08,,
"SPI","result",0.03834954,1.5e-05,0x44,0xFF
"SPI","result",0.0383765,1.498e-05,0xFF,0x00
"SPI","disable",0.03839944,1.99999999e-08,,
"SPI","enable",0.0384007,1.99999995e-08,,
"SPI","result",0.03840668,1.5e-05,0x44,0xFF
"SPI","result",0.03843362,1.5e-05,0xFF,0xFF
"SPI","disable",0.03845684,2.00000004e-08,,
"SPI","enable",0.03849276,1.99999999e-08,,
"SPI","result",0.03850224,1.5e-05,0x11,0xFF
"SPI","result",0.03855216,1.498e-05,0x02,0xFF
"SPI","result",0.0385806,1.498e-05,0x04,0xFF
"SPI","result",0.03860904,1.498e-05,0x00,0xFF
"SPI","result",0.03863748,1.5e-05,0x00,0xFF
"SPI","result",0.03866592,1.5e-05,0x00,0xFF
"SPI","result",0.03869438,1.498e-05,0x00,0xFF
"SPI","result",0.03872282,1.498e-05,0x00,0xFF
"SPI","disable",0.03874752,2.00000004e-08,,
"SPI","enable",0.03875676,1.99999999e-08,,
"SPI","result",0.03876274,1.5e-05,0x44,0xFF
"SPI","result",0.0387897,1.498e-05,0xFF,0xFF
"SPI","disable",0.0388129,1.99999999e-08,,
"SPI","enable",0.0388421,1.99999995e-08,,
"SPI","result",0.03887278,1.498e-05,0x11,0xFF
"SPI","result",0.03890122,1.5e-05,0x10,0xFF
"SPI","result",0.03892968,1.498e-05,0x01,0xFF
"SPI","result",0.03895812,1.498e-05,0x04,0xFF
"SPI","result",0.03898656,1.498e-05,0x21,0xFF
"SPI","disable",0.03901126,1.99999999e-08,,
"SPI","enable",0.03902048,1.99999999e-08,,
"SPI","result",0.03902648,1.498e-05,0x44,0xFF
"SPI","result",0.03905342,1.5e-05,0xFF,0xFF
"SPI","disable",0.03907662,1.99999999e-08,,
"SPI","enable",0.03913052,1.99999999e-08,,
"SPI","result",0.03914,1.5e-05,0x11,0xFF
"SPI","result",0.03916846,1.498e-05,0x20,0xFF
"SPI","result",0.03921038,1.498e-05,0x0C,0xFF
"SPI","result",0.03923882,1.498e-05,0x00,0xFF
"SPI","result",0.03926726,1.5e-05,0x6B,0xFF
"SPI","result",0.03929572,1.498e-05,0x00,0xFF
"SPI","result",0.03932416,1.498e-05,0x07,0xFF
"SPI","result",0.0393526,1.5e-05,0x01,0xFF
"SPI","result",0.03938104,1.5e-05,0x86,0xFF
"SPI","result",0.0394095,1.498e-05,0xA0,0xFF
"SPI","result",0.03943794,1.498e-05,0x05,0xFF
"SPI","result",0.03946638,1.5e-05,0x86,0xFF
"SPI","result",0.03949482,1.5e-05,0xA0,0xFF
"SPI","result",0.03954074,1.5e-05,0x00,0xFF
"SPI","result",0.0395692,1.498e-05,0x00,0xFF
"SPI","result",0.03959764,1.498e-05,0x01,0xFF
"SPI","disable",0.03962234,2.00000004e-08,,
"SPI","enable",0.03963158,1.99999995e-08,,
"SPI","result",0.03963756,1.5e-05,0x44,0xFF
"SPI","result",0.0396645,1.5e-05,0xFF,0x00
"SPI","disable",0.03968746,1.99999999e-08,,
"SPI","enable",0.0396887,1.99999999e-08,,
"SPI","result",0.0396947,1.498e-05,0x44,0xFF
"SPI","result",0.03978926,1.5e-05,0xFF,0xFF
"SPI","disable",0.03981246,2.00000004e-08,,
"SPI","enable",0.03986262,1.99999999e-08,,
"SPI","result",0.0398721,1.498e-05,0x11,0xFF
"SPI","result",0.03990054,1.5e-05,0x20,0xFF
"SPI","result",0.03992898,1.5e-05,0x01,0xFF
"SPI","result",0.03995744,1.498e-05,0x0C,0xFF
"SPI","result",0.03998588,1.498e-05,0x33,0xFF
"SPI","disable",0.04001058,1.99999999e-08,,
"SPI","enable",0.0400198,1.99999999e-08,,
"SPI","result",0.0400258,1.498e-05,0x44,0xFF
"SPI","result",0.04005274,1.498e-05,0xFF,0xFF
"SPI","disable",0.04007594,1.99999999e-08,,
"SPI","enable",0.04012982,2.00000004e-08,,
"SPI","result",0.0401393,1.5e-05,0x11,0xFF
"SPI","result",0.04018972,1.498e-05,0x20,0xFF
"SPI","result",0.04021814,1.5e-05,0x0C,0xFF
"SPI","result",0.0402466,1.498e-05,0x18,0xFF
"SPI","result",0.04027504,1.498e-05,0x01,0xFF
"SPI","result",0.04030348,1.498e-05,0x80,0xFF
"SPI","result",0.04033192,1.498e-05,0x08,0xFF
"SPI","result",0.04036036,1.5e-05,0x03,0xFF
"SPI","result",0.0403888,1.5e-05,0x60,0xFF
"SPI","result",0.04041726,1.498e-05,0x00,0xFF
"SPI","result",0.0404457,1.498e-05,0x70,0xFF
"SPI","result",0.04047414,1.498e-05,0x20,0xFF
"SPI","result",0.04052404,1.498e-05,0x0C,0xFF
"SPI","result",0.04055248,1.498e-05,0xE8,0xFF
"SPI","result",0.04058092,1.5e-05,0x01,0xFF
"SPI","result",0.04060936,1.5e-05,0x40,0xFF
"SPI","disable",0.04063406,1.99999999e-08,,
"SPI","enable",0.0406433,1.99999999e-08,,
"SPI","result",0.0406493,1.498e-05,0x44,0xFF
"SPI","result",0.04067624,1.498e-05,0xFF,0x00
"SPI","disable",0.0406992,1.99999999e-08,,
"SPI","enable",0.04070044,2.00000004e-08,,
"SPI","result",0.04070644,1.498e-05,0x44,0xFF
"SPI","result",0.04073338,1.498e-05,0xFF,0xFF
"SPI","disable",0.04075658,1.99999995e-08,,
"SPI","enable",0.04081048,2.00000004e-08,,
"SPI","result",0.04084192,1.498e-05,0x11,0xFF
"SPI","result",0.04087036,1.498e-05,0x20,0xFF
"SPI","result",0.0408988,1.498e-05,0x0C,0xFF
"SPI","result",0.04092724,1.498e-05,0x24,0xFF
"SPI","result",0.04095568,1.498e-05,0x01,0xFF
"SPI","result",0.04098412,1.5e-05,0x99,0xFF
"SPI","result",0.04101256,1.5e-05,0x9A,0xFF
"SPI","result",0.041041,1.5e-05,0x00,0xFF
"SPI","result",0.04106944,1.5e-05,0xCD,0xFF
"SPI","result",0.0410979,1.498e-05,0x00,0xFF
"SPI","result",0.04112632,1.5e-05,0xC2,0xFF
"SPI","result",0.04117598,1.498e-05,0x00,0xFF
"SPI","result",0.0412044,1.5e-05,0x54,0xFF
"SPI","result",0.04123284,1.5e-05,0x62,0xFF
"SPI","result",0.04126128,1.5e-05,0x80,0xFF
"SPI","result",0.04128974,1.498e-05,0x6B,0xFF
"SPI","disable",0.04131442,1.99999995e-08,,
"SPI","enable",0.04132366,2.00000004e-08,,
"SPI","result",0.04132966,1.498e-05,0x44,0xFF
"SPI","result",0.0413566,1.498e-05,0xFF,0x00
"SPI","disable",0.04137954,1.99999999e-08,,
"SPI","enable",0.0413808,2.00000004e-08,,
"SPI","result",0.04138678,1.498e-05,0x44,0xFF
"SPI","result",0.04141372,1.5e-05,0xFF,0xFF
"SPI","disable",0.04143692,2.00000004e-08,,
"SPI","enable",0.0414706,2.00000004e-08,,
"SPI","result",0.0415018,1.498e-05,0x11,0xFF
"SPI","result",0.04153024,1.498e-05,0x20,0xFF
"SPI","result",0.04155868,1.498e-05,0x03,0xFF
"SPI","result",0.04158712,1.498e-05,0x30,0xFF
"SPI","result",0.04161554,1.5e-05,0x01,0xFF
"SPI","result",0.04164398,1.5e-05,0xE5,0xFF
"SPI","result",0.04167242,1.5e-05,0x80,0xFF
"SPI","disable",0.04169712,2.00000004e-08,,
"SPI","enable",0.04170634,2.00000004e-08,,
"SPI","result",0.04171234,1.498e-05,0x44,0xFF
"SPI","result",0.04173928,1.498e-05,0xFF,0x00
"SPI","disable",0.04184904,2.00000004e-08,,
"SPI","enable",0.04185028,2.00000004e-08,,
"SPI","result",0.04185628,1.498e-05,0x44,0xFF
"SPI","result",0.04188322,1.498e-05,0xFF,0xFF
"SPI","disable",0.04190642,1.99999999e-08,,
"SPI","enable",0.0419356,1.99999999e-08,,
"SPI","result",0.0419451,1.498e-05,0x11,0xFF
"SPI","result",0.04197354,1.498e-05,0x20,0xFF
"SPI","result",0.04200198,1.498e-05,0x01,0xFF
"SPI","result",0.04203042,1.498e-05,0x35,0xFF
"SPI","result",0.04205886,1.498e-05,0xE0,0xFF
"SPI","disable",0.04208356,1.99999999e-08,,
"SPI","enable",0.04209278,1.99999999e-08,,
"SPI","result",0.04209878,1.498e-05,0x44,0xFF
"SPI","result",0.04212572,1.5e-05,0xFF,0xFF
"SPI","disable",0.04215816,1.99999999e-08,,
"SPI","enable",0.04221204,1.99999999e-08,,
"SPI","result",0.04222152,1.5e-05,0x11,0xFF
"SPI","result",0.04224998,1.498e-05,0x20,0xFF
"SPI","result",0.04227842,1.498e-05,0x0C,0xFF
"SPI","result",0.04230686,1.498e-05,0x38,0xFF
"SPI","result",0.0423353,1.498e-05,0x11,0xFF
"SPI","result",0.04236374,1.5e-05,0x46,0xFF
"SPI","result",0.04239218,1.5e-05,0x46,0xFF
"SPI","result",0.04242064,1.498e-05,0x80,0xFF
"SPI","result",0.04244908,1.498e-05,0x1A,0xFF
"SPI","result",0.04249498,1.5e-05,0x99,0xFF
"SPI","result",0.04252342,1.5e-05,0x9A,0xFF
"SPI","result",0.04255188,1.498e-05,0x00,0xFF
"SPI","result",0.04258032,1.498e-05,0x2A,0xFF
"SPI","result",0.04260876,1.5e-05,0x0C,0xFF
"SPI","result",0.0426372,1.5e-05,0x84,0xFF
"SPI","result",0.04266566,1.498e-05,0x23,0xFF
"SPI","disable",0.04269034,1.99999999e-08,,
"SPI","enable",0.04269958,1.99999999e-08,,
"SPI","result",0.04270556,1.5e-05,0x44,0xFF
"SPI","result",0.04273252,1.498e-05,0xFF,0x00
"SPI","disable",0.04275546,1.99999999e-08,,
"SPI","enable",0.0427567,1.99999999e-08,,
"SPI","result",0.0427627,1.498e-05,0x44,0xFF
"SPI","result",0.0428111,1.5e-05,0xFF,0xFF
"SPI","disable",0.0428343,1.99999999e-08,,
"SPI","enable",0.04286798,1.99999999e-08,,
"SPI","result",0.04287746,1.498e-05,0x11,0xFF
"SPI","result",0.0429059,1.498e-05,0x20,0xFF
"SPI","result",0.04293434,1.498e-05,0x03,0xFF
"SPI","result",0.04296278,1.498e-05,0x45,0xFF
"SPI","result",0.04299122,1.5e-05,0x8F,0xFF
"SPI","result",0.04301966,1.5e-05,0x00,0xFF
"SPI","result",0.0430481,1.5e-05,0x9C,0xFF
"SPI","disable",0.0430728,1.99999999e-08,,
"SPI","enable",0.04308204,2.00000004e-08,,
"SPI","result",0.04308802,1.5e-05,0x44,0xFF
"SPI","result",0.04313642,1.5e-05,0xFF,0x00
"SPI","disable",0.04315938,1.99999999e-08,,
"SPI","enable",0.04316064,1.99999999e-08,,
"SPI","result",0.04316662,1.498e-05,0x44,0xFF
"SPI","result",0.04319356,1.5e-05,0xFF,0xFF
"SPI","disable",0.04321676,1.99999999e-08,,
"SPI","enable",0.0432482,1.99999999e-08,,
"SPI","result",0.0432577,1.498e-05,0x11,0xFF
"SPI","result",0.04328614,1.498e-05,0x20,0xFF
"SPI","result",0.04331458,1.5e-05,0x02,0xFF
"SPI","result",0.04334304,1.498e-05,0x50,0xFF
"SPI","result",0.04337148,1.498e-05,0x94,0xFF
"SPI","result",0.04339992,1.498e-05,0x09,0xFF
"SPI","disable",0.04342462,1.99999999e-08,,
"SPI","enable",0.04343384,1.99999999e-08,,
"SPI","result",0.04343984,1.498e-05,0x44,0xFF
"SPI","result",0.04347626,1.498e-05,0xFF,0xFF
"SPI","disable",0.04349946,1.99999999e-08,,
"SPI","enable",0.04352864,1.99999999e-08,,
"SPI","result",0.04353812,1.5e-05,0x11,0xFF
"SPI","result",0.04356656,1.5e-05,0x20,0xFF
"SPI","result",0.043595,1.498e-05,0x01,0xFF
"SPI","result",0.04362344,1.5e-05,0x54,0xFF
"SPI","result",0.04365188,1.5e-05,0x03,0xFF
"SPI","disable",0.04367658,1.99999995e-08,,
"SPI","enable",0.0436858,1.99999995e-08,,
"SPI","result",0.0436918,1.498e-05,0x44,0xFF
"SPI","result",0.04371874,1.498e-05,0xFF,0xFF
"SPI","disable",0.04374194,1.99999999e-08,,
"SPI","enable",0.04379908,1.99999999e-08,,
"SPI","result",0.04387666,1.498e-05,0x11,0xFF
"SPI","result",0.0439051,1.498e-05,0x22,0xFF
"SPI","result",0.04393354,1.498e-05,0x04,0xFF
"SPI","result",0.04396198,1.498e-05,0x00,0xFF
"SPI","result",0.04399042,1.498e-05,0x08,0xFF
"SPI","result",0.04401886,1.498e-05,0x7F,0xFF
"SPI","result",0.0440473,1.498e-05,0x00,0xFF
"SPI","result",0.04407574,1.498e-05,0x1F,0xFF
"SPI","disable",0.04412164,2.00000004e-08,,
"SPI","enable",0.04413086,1.99999999e-08,,
"SPI","result",0.04413686,1.498e-05,0x44,0xFF
"SPI","result",0.0441638,1.5e-05,0xFF,0x00
"SPI","disable",0.04418676,1.99999999e-08,,
"SPI","enable",0.044188,1.99999999e-08,,
"SPI","result",0.044194,1.498e-05,0x44,0xFF
"SPI","result",0.04422094,1.498e-05,0xFF,0xFF
"SPI","disable",0.04424414,1.99999999e-08,,
"SPI","enable",0.0442868,1.99999999e-08,,
"SPI","result",0.04429628,1.498e-05,0x11,0xFF
"SPI","result",0.04432472,1.498e-05,0x23,0xFF
"SPI","result",0.04435316,1.498e-05,0x07,0xFF
"SPI","result",0.0443816,1.498e-05,0x00,0xFF
"SPI","result",0.04441004,1.5e-05,0x2C,0xFF
"SPI","result",0.04445994,1.498e-05,0x0E,0xFF
"SPI","result",0.04448838,1.498e-05,0x0B,0xFF
"SPI","result",0.04451682,1.498e-05,0x04,0xFF
"SPI","result",0.04454526,1.5e-05,0x0C,0xFF
"SPI","result",0.0445737,1.5e-05,0x73,0xFF
"SPI","result",0.04460214,1.5e-05,0x03,0xFF
"SPI","disable",0.04462684,2.00000004e-08,,
"SPI","enable",0.04463608,1.99999999e-08,,
"SPI","result",0.04464206,1.498e-05,0x44,0xFF
"SPI","result",0.044669,1.5e-05,0xFF,0x00
"SPI","disable",0.04469196,2.00000004e-08,,
"SPI","enable",0.0446932,2.00000004e-08,,
"SPI","result",0.0446992,1.498e-05,0x44,0xFF
"SPI","result",0.04472614,1.498e-05,0xFF,0xFF
"SPI","disable",0.04474934,1.99999995e-08,,
"SPI","enable",0.0448132,1.99999999e-08,,
"SPI","result",0.0448227,1.498e-05,0x11,0xFF
"SPI","result",0.04485114,1.498e-05,0x40,0xFF
"SPI","result",0.04487958,1.498e-05,0x07,0xFF
"SPI","result",0.04490802,1.498e-05,0x00,0xFF
"SPI","result",0.04493646,1.498e-05,0x4D,0xFF
"SPI","result",0.0449649,1.498e-05,0x09,0xFF
"SPI","result",0.04499334,1.5e-05,0x00,0xFF
"SPI","result",0.04502178,1.5e-05,0x00,0xFF
"SPI","result",0.04505022,1.5e-05,0x04,0xFF
"SPI","result",0.04507866,1.5e-05,0x00,0xFF
"SPI","result",0.04512058,1.5e-05,0x20,0xFF
"SPI","disable",0.04514528,2.00000004e-08,,
"SPI","enable",0.04515452,1.99999999e-08,,
"SPI","result",0.0451605,1.498e-05,0x44,0xFF
"SPI","result",0.04518744,1.5e-05,0xFF,0xFF
"SPI","disable",0.04521064,1.99999999e-08,,
"SPI","enable",0.0452346,1.99999999e-08,,
"SPI","result",0.04524408,1.5e-05,0x33,0xFF
"SPI","disable",0.04526878,2.00000004e-08,,
"SPI","enable",0.04527802,1.99999999e-08,,
"SPI","result",0.045284,1.498e-05,0x44,0xFF
"SPI","result",0.04531094,1.498e-05,0xFF,0xFF
"SPI","result",0.04534212,1.5e-05,0xFF,0x03
"SPI","result",0.04537056,1.5e-05,0xFF,0x00
"SPI","disable",0.04539576,1.99999999e-08,,
"SPI","enable",0.04543668,1.99999999e-08,,
"SPI","result",0.04544616,1.5e-05,0x34,0xFF
"SPI","result",0.0454746,1.5e-05,0x03,0xFF
"SPI","disable",0.0454993,1.99999999e-08,,
"SPI","enable",0.04551676,1.99999999e-08,,
"SPI","result",0.04552276,1.498e-05,0x44,0xFF
"SPI","result",0.0455497,1.5e-05,0xFF,0xFF
"SPI","disable",0.0455729,2.00000004e-08,,
"SPI","enable",0.04557988,1.99999995e-08,,
"SPI","result",0.04558938,1.498e-05,0x11,0xFF
"SPI","result",0.04561782,1.498e-05,0x40,0xFF
"SPI","result",0.04564626,1.498e-05,0x04,0xFF
"SPI","result",0.04567468,1.5e-05,0x00,0xFF
"SPI","result",0.04570312,1.498e-05,0x4D,0xFF
"SPI","result",0.04573156,1.498e-05,0x05,0xFF
"SPI","result",0.04577746,1.5e-05,0xB4,0xFF
"SPI","result",0.0458059,1.5e-05,0x00,0xFF
"SPI","result",0.04583434,1.5e-05,0x04,0xFF
"SPI","result",0.04593264,1.498e-05,0x00,0xFF
"SPI","result",0.04596106,1.5e-05,0x20,0xFF
"SPI","disable",0.04598576,2.00000004e-08,,
"SPI","enable",0.04602392,1.99999999e-08,,
"SPI","result",0.04602992,1.498e-05,0x44,0xFF
"SPI","result",0.04605686,1.5e-05,0xFF,0xFF
"SPI","disable",0.04609752,1.99999999e-08,,
"SPI","enable",0.0461045,2.00000004e-08,,
"SPI","result",0.04611398,1.5e-05,0x11,0xFF
"SPI","result",0.04614242,1.5e-05,0x20,0xFF
"SPI","result",0.04617086,1.5e-05,0x02,0xFF
"SPI","result",0.0461993,1.5e-05,0x0D,0xFF
"SPI","result",0.04622776,1.498e-05,0x00,0xFF
"SPI","result",0.0462562,1.498e-05,0x00,0xFF
"SPI","disable",0.04628088,1.99999999e-08,,
"SPI","enable",0.04630084,2.00000004e-08,,
"SPI","result",0.04630684,1.498e-05,0x44,0xFF
"SPI","result",0.04633378,1.5e-05,0xFF,0xFF
"SPI","disable",0.04635698,1.99999999e-08,,
"SPI","enable",0.04636398,2.00000004e-08,,
"SPI","result",0.04637346,1.498e-05,0x11,0xFF
"SPI","result",0.0464231,1.498e-05,0x20,0xFF
"SPI","result",0.04645154,1.498e-05,0x02,0xFF
"SPI","result",0.04647998,1.498e-05,0x0B,0xFF
"SPI","result",0.04650842,1.498e-05,0x01,0xFF
"SPI","result",0.04653686,1.498e-05,0x33,0xFF
"SPI","disable",0.04656156,2.00000004e-08,,
"SPI","enable",0.10227834,2.00000004e-08,,
"SPI","result",0.10227982,5.88e-06,0x44,0xFF
"SPI","result",0.10228918,5.88e-06,0xFF,0xFF
"SPI","disable",0.10229748,2.00000004e-08,,
"SPI","enable",0.10229886,1.99999999e-08,,
"SPI","result",0.1023011,5.88e-06,0x34,0xFF
"SPI","result",0.10231078,5.86e-06,0x07,0xFF
"SPI","disable",0.10231936,1.99999999e-08,,
"SPI","enable",0.10298244,1.99999999e-08,,
"SPI","result",0.10298402,5.88e-06,0x44,0xFF
"SPI","result",0.10299338,5.88e-06,0xFF,0xFF
"SPI","disable",0.10300628,2.00000004e-08,,
"SPI","enable",0.10300764,1.99999999e-08,,
"SPI","result",0.1030099,5.88e-06,0x33,0xFF
"SPI","disable",0.10301848,2.00000004e-08,,
"SPI","enable",0.10302034,1.99999999e-08,,
"SPI","result",0.1030218,5.88e-06,0x44,0xFF
"SPI","result",0.10303118,5.88e-06,0xFF,0x00
"SPI","disable",0.10303948,1.99999999e-08,,
"SPI","enable",0.10303968,2.00000004e-08,,
"SPI","result",0.10304124,5.88e-06,0x44,0xFF
"SPI","result",0.10305062,5.88e-06,0xFF,0xFF
"SPI","result",0.1030762,5.88e-06,0xFF,0x07
"SPI","result",0.10308586,5.88e-06,0xFF,0x00
"SPI","disable",0.10309456,2.00000004e-08,,
"SPI","enable",0.10309846,1.99999999e-08,,
"SPI","result",0.10310062,5.88e-06,0x34,0xFF
"SPI","result",0.10311028,5.88e-06,0x03,0xFF
"SPI","disable",0.10311888,1.99999999e-08,,
"SPI","enable",0.1031223,1.99999999e-08,,
"SPI","result",0.10312386,5.88e-06,0x44,0xFF
"SPI","result",0.10313324,5.88e-06,0xFF,0x00
"SPI","disable",0.10314154,2.00000004e-08,,
"SPI","enable",0.10314172,1.99999999e-08,,
"SPI","result",0.1031433,5.86e-06,0x44,0xFF
"SPI","result",0.10315266,5.88e-06,0xFF,0xFF
"SPI","disable",0.10316096,1.99999999e-08,,
"SPI","enable",0.10316234,1.99999999e-08,,
"SPI","result",0.10316458,5.88e-06,0x11,0xFF
"SPI","result",0.10317424,5.88e-06,0x40,0xFF
"SPI","result",0.10318392,5.88e-06,0x04,0xFF
"SPI","result",0.10319358,5.88e-06,0x00,0xFF
"SPI","result",0.10320326,5.88e-06,0x4D,0xFF
"SPI","result",0.10321292,5.88e-06,0x05,0xFF
"SPI","result",0.10322258,5.88e-06,0xB4,0xFF
