name,type,start_time,duration,"mosi","miso"
"SPI","enable",-7e-06,1.99999999e-08,,
"SPI","result",-1e-06,1.5e-05,0x44,0xFF
"SPI","result",2.596e-05,1.5e-05,0xFF,0x00
"SPI","disable",4.894e-05,2.00000004e-08,,
"SPI","enable",5.018e-05,2.00000004e-08,,
"SPI","result",5.618e-05,1.5e-05,0x44,0xFF
"SPI","result",8.314e-05,1.5e-05,0xFF,0x00
"SPI","disable",0.0001061,1.99999999e-08,,
"SPI","enable",0.00010736,1.99999999e-08,,
"SPI","result",0.00011334,1.5e-05,0x44,0xFF
"SPI","result",0.00014032,1.5e-05,0xFF,0x00
"SPI","disable",0.00016328,1.99999999e-08,,
"SPI","enable",0.00016452,1.99999999e-08,,
"SPI","result",0.00017052,1.5e-05,0x44,0xFF
"SPI","result",0.00019748,1.5e-05,0xFF,0x00
"SPI","disable",0.00023394,1.99999995e-08,,
"SPI","enable",0.00023518,1.99999995e-08,,
"SPI","result",0.00024118,1.5e-05,0x44,0xFF
"SPI","result",0.00026814,1.5e-05,0xFF,0x00
"SPI","disable",0.00029112,1.99999995e-08,,
"SPI","enable",0.00029236,1.99999999e-08,,
"SPI","result",0.00029836,1.5e-05,0x44,0xFF
"SPI","result",0.00032532,1.5e-05,0xFF,0x00
"SPI","disable",0.00034828,1.99999999e-08,,
"SPI","enable",0.00034954,1.99999999e-08,,
"SPI","result",0.00035554,1.5e-05,0x44,0xFF
"SPI","result",0.0003825,1.5e-05,0xFF,0x00
"SPI","disable",0.00040546,1.99999999e-08,,
"SPI","enable",0.00040672,1.99999999e-08,,
"SPI","result",0.0004127,1.5e-05,0x44,0xFF
"SPI","result",0.00043968,1.5e-05,0xFF,0x00
"SPI","disable",0.00046264,1.99999995e-08,,
"SPI","enable",0.00046388,1.99999999e-08,,
"SPI","result",0.00046988,1.5e-05,0x44,0xFF
"SPI","result",0.00049686,1.5e-05,0xFF,0x00
"SPI","disable",0.00051982,1.99999999e-08,,
"SPI","enable",0.00052106,2.00000004e-08,,
"SPI","result",0.00052706,1.5e-05,0x44,0xFF
"SPI","result",0.00056752,1.5e-05,0xFF,0x00
"SPI","disable",0.00059048,2.00000004e-08,,
"SPI","enable",0.00059172,2.00000004e-08,,
"SPI","result",0.00059772,1.5e-05,0x44,0xFF
"SPI","result",0.00062468,1.5e-05,0xFF,0x00
"SPI","disable",0.00064766,1.99999999e-08,,
"SPI","enable",0.0006489,1.99999999e-08,,
"SPI","result",0.0006549,1.5e-05,0x44,0xFF
"SPI","result",0.00068186,1.5e-05,0xFF,0x00
"SPI","disable",0.00070482,1.99999999e-08,,
"SPI","enable",0.00070608,1.99999999e-08,,
"SPI","result",0.00071206,1.5e-05,0x44,0xFF
"SPI","result",0.00073904,1.5e-05,0xFF,0x00
"SPI","disable",0.000762,1.99999999e-08,,
"SPI","enable",0.00076324,1.99999999e-08,,
"SPI","result",0.00076924,1.5e-05,0x44,0xFF
"SPI","result",0.0007962,1.5e-05,0xFF,0x00
"SPI","disable",0.00081918,2.00000004e-08,,
"SPI","enable",0.00082042,1.99999999e-08,,
"SPI","result",0.00082642,1.5e-05,0x44,0xFF
"SPI","result",0.00085338,1.5e-05,0xFF,0x00
"SPI","disable",0.0009505,2.00000004e-08,,
"SPI","enable",0.00095176,1.99999999e-08,,
"SPI","result",0.00095774,1.5e-05,0x44,0xFF
"SPI","result",0.0009847,1.5e-05,0xFF,0xFF
"SPI","disable",0.00100792,1.99999999e-08,,
"SPI","enable",0.00101492,1.99999999e-08,,
"SPI","result",0.0010244,1.5e-05,0x04,0xFF
"SPI","result",0.00105286,1.5e-05,0x21,0xFF
"SPI","result",0.00108132,1.5e-05,0x71,0xFF
"SPI","result",0.00110978,1.5e-05,0x4B,0xFF
"SPI","result",0.00113824,1.5e-05,0x00,0xFF
"SPI","result",0.0011667,1.5e-05,0x00,0xFF
"SPI","result",0.00121614,1.5e-05,0xBA,0xFF
"SPI","result",0.0012446,1.498e-05,0x9E,0xFF
"SPI","disable",0.0012693,2.00000004e-08,,
"SPI","enable",0.00127854,1.99999995e-08,,
"SPI","result",0.00128454,1.498e-05,0x44,0xFF
"SPI","result",0.0013115,1.5e-05,0xFF,0x00
"SPI","disable",0.00133446,1.99999999e-08,,
"SPI","enable",0.0013357,1.99999999e-08,,
"SPI","result",0.0013417,1.5e-05,0x44,0xFF
"SPI","result",0.00136866,1.5e-05,0xFF,0x00
"SPI","disable",0.00139162,2.00000004e-08,,
"SPI","enable",0.00139288,2.00000004e-08,,
"SPI","result",0.00139886,1.5e-05,0x44,0xFF
"SPI","result",0.00142582,1.5e-05,0xFF,0x00
"SPI","disable",0.0014488,1.99999999e-08,,
"SPI","enable",0.00145004,1.99999999e-08,,
"SPI","result",0.00145604,1.5e-05,0x44,0xFF
"SPI","result",0.001483,1.5e-05,0xFF,0x00
"SPI","disable",0.00150596,1.99999999e-08,,
"SPI","enable",0.00150722,2.00000004e-08,,
"SPI","result",0.0015132,1.5e-05,0x44,0xFF
"SPI","result",0.00155366,1.498e-05,0xFF,0x00
"SPI","disable",0.00157662,1.99999999e-08,,
"SPI","enable",0.00157786,1.99999999e-08,,
"SPI","result",0.00158386,1.5e-05,0x44,0xFF
"SPI","result",0.00161082,1.5e-05,0xFF,0x00
"SPI","disable",0.0016338,1.99999999e-08,,
"SPI","enable",0.00163504,2.00000004e-08,,
"SPI","result",0.00164104,1.5e-05,0x44,0xFF
"SPI","result",0.001668,1.5e-05,0xFF,0x00
"SPI","disable",0.00169096,1.99999999e-08,,
"SPI","enable",0.00169222,1.99999999e-08,,
"SPI","result",0.0016982,1.5e-05,0x44,0xFF
"SPI","result",0.00172518,1.5e-05,0xFF,0x00
"SPI","disable",0.00174814,2.00000004e-08,,
"SPI","enable",0.00174938,2.00000004e-08,,
"SPI","result",0.00175538,1.5e-05,0x44,0xFF
"SPI","result",0.00178234,1.5e-05,0xFF,0x00
"SPI","disable",0.00180532,1.99999999e-08,,
"SPI","enable",0.00180656,1.99999999e-08,,
"SPI","result",0.00181256,1.5e-05,0x44,0xFF
"SPI","result",0.00183952,1.5e-05,0xFF,0x00
"SPI","disable",0.00187598,1.99999995e-08,,
"SPI","enable",0.00187722,1.99999999e-08,,
"SPI","result",0.00188322,1.5e-05,0x44,0xFF
"SPI","result",0.00191018,1.5e-05,0xFF,0x00
"SPI","disable",0.00193316,2.00000004e-08,,
"SPI","enable",0.0019344,2.00000004e-08,,
"SPI","result",0.0019404,1.5e-05,0x44,0xFF
"SPI","result",0.00196736,1.5e-05,0xFF,0x00
"SPI","disable",0.00199032,1.99999995e-08,,
"SPI","enable",0.00199158,1.99999999e-08,,
"SPI","result",0.00199758,1.498e-05,0x44,0xFF
"SPI","result",0.00202454,1.5e-05,0xFF,0x00
"SPI","disable",0.0020475,1.99999995e-08,,
"SPI","enable",0.00204874,1.99999999e-08,,
"SPI","result",0.00205474,1.5e-05,0x44,0xFF
"SPI","result",0.0020817,1.5e-05,0xFF,0x00
"SPI","disable",0.00210468,1.99999999e-08,,
"SPI","enable",0.00210592,1.99999999e-08,,
"SPI","result",0.00211192,1.5e-05,0x44,0xFF
"SPI","result",0.00213888,1.5e-05,0xFF,0x00
"SPI","disable",0.00216184,1.99999995e-08,,
"SPI","enable",0.0021631,1.99999999e-08,,
"SPI","result",0.00216908,1.5e-05,0x44,0xFF
"SPI","result",0.00220954,1.5e-05,0xFF,0x00
"SPI","disable",0.0022325,1.99999999e-08,,
"SPI","enable",0.00223374,1.99999999e-08,,
"SPI","result",0.00223974,1.5e-05,0x44,0xFF
"SPI","result",0.0022667,1.5e-05,0xFF,0x00
"SPI","disable",0.00228968,2.00000004e-08,,
"SPI","enable",0.00229092,2.00000004e-08,,
"SPI","result",0.00229692,1.5e-05,0x44,0xFF
"SPI","result",0.00232388,1.5e-05,0xFF,0x00
"SPI","disable",0.00234684,1.99999999e-08,,
"SPI","enable",0.00234808,1.99999999e-08,,
"SPI","result",0.00235408,1.5e-05,0x44,0xFF
"SPI","result",0.00238104,1.5e-05,0xFF,0x00
"SPI","disable",0.00240402,1.99999999e-08,,
"SPI","enable",0.00240526,1.99999999e-08,,
"SPI","result",0.00241126,1.498e-05,0x44,0xFF
"SPI","result",0.00243822,1.498e-05,0xFF,0x00
"SPI","disable",0.00246118,2.00000004e-08,,
"SPI","enable",0.00246242,2.00000004e-08,,
"SPI","result",0.00246842,1.5e-05,0x44,0xFF
"SPI","result",0.00249538,1.5e-05,0xFF,0x00
"SPI","disable",0.00253182,1.99999999e-08,,
"SPI","enable",0.00253308,2.00000004e-08,,
"SPI","result",0.00253906,1.5e-05,0x44,0xFF
"SPI","result",0.00256602,1.5e-05,0xFF,0x00
"SPI","disable",0.002589,1.99999999e-08,,
"SPI","enable",0.00259024,1.99999999e-08,,
"SPI","result",0.00259624,1.5e-05,0x44,0xFF
"SPI","result",0.0026232,1.5e-05,0xFF,0x00
"SPI","disable",0.00264616,1.99999999e-08,,
"SPI","enable",0.00264742,1.99999999e-08,,
"SPI","result",0.0026534,1.5e-05,0x44,0xFF
"SPI","result",0.00268038,1.498e-05,0xFF,0x00
"SPI","disable",0.00270334,2.00000004e-08,,
"SPI","enable",0.00270458,2.00000004e-08,,
"SPI","result",0.00271058,1.5e-05,0x44,0xFF
"SPI","result",0.00273754,1.5e-05,0xFF,0x00
"SPI","disable",0.0027605,1.99999999e-08,,
"SPI","enable",0.00276176,1.99999999e-08,,
"SPI","result",0.00276774,1.5e-05,0x44,0xFF
"SPI","result",0.00279472,1.498e-05,0xFF,0x00
"SPI","disable",0.00281768,1.99999999e-08,,
"SPI","enable",0.00281892,1.99999999e-08,,
"SPI","result",0.00282492,1.5e-05,0x44,0xFF
"SPI","result",0.00286536,1.5e-05,0xFF,0x00
"SPI","disable",0.00288832,1.99999999e-08,,
"SPI","enable",0.00288958,1.99999999e-08,,
"SPI","result",0.00289556,1.5e-05,0x44,0xFF
"SPI","result",0.00298294,1.5e-05,0xFF,0x00
"SPI","disable",0.0030059,1.99999995e-08,,
"SPI","enable",0.00300716,2.00000004e-08,,
"SPI","result",0.00301314,1.5e-05,0x44,0xFF
"SPI","result",0.0030401,1.5e-05,0xFF,0x00
"SPI","disable",0.00306308,1.99999995e-08,,
"SPI","enable",0.00306432,1.99999999e-08,,
"SPI","result",0.00307032,1.5e-05,0x44,0xFF
"SPI","result",0.00309728,1.5e-05,0xFF,0x00
"SPI","disable",0.00312024,1.99999995e-08,,
"SPI","enable",0.0031215,1.99999999e-08,,
"SPI","result",0.00312748,1.5e-05,0x44,0xFF
"SPI","result",0.00315444,1.5e-05,0xFF,0x00
"SPI","disable",0.0031909,1.99999999e-08,,
"SPI","enable",0.00319214,1.99999999e-08,,
"SPI","result",0.00319814,1.5e-05,0x44,0xFF
"SPI","result",0.0032251,1.5e-05,0xFF,0x00
"SPI","disable",0.00324806,1.99999999e-08,,
"SPI","enable",0.00324932,2.00000004e-08,,
"SPI","result",0.0032553,1.5e-05,0x44,0xFF
"SPI","result",0.00328228,1.498e-05,0xFF,0x00
"SPI","disable",0.00330524,1.99999999e-08,,
"SPI","enable",0.00330648,1.99999999e-08,,
"SPI","result",0.00331248,1.5e-05,0x44,0xFF
"SPI","result",0.00333944,1.5e-05,0xFF,0x00
"SPI","disable",0.0033624,1.99999999e-08,,
"SPI","enable",0.00336366,1.99999999e-08,,
"SPI","result",0.00336964,1.5e-05,0x44,0xFF
"SPI","result",0.0033966,1.5e-05,0xFF,0x00
"SPI","disable",0.00341958,2.00000004e-08,,
"SPI","enable",0.00342082,2.00000004e-08,,
"SPI","result",0.00342682,1.498e-05,0x44,0xFF
"SPI","result",0.00345378,1.498e-05,0xFF,0x00
"SPI","disable",0.00347674,1.99999999e-08,,
"SPI","enable",0.00347798,1.99999999e-08,,
"SPI","result",0.00348398,1.5e-05,0x44,0xFF
"SPI","result",0.00352044,1.5e-05,0xFF,0x00
"SPI","disable",0.0035434,1.99999999e-08,,
"SPI","enable",0.00354464,1.99999999e-08,,
"SPI","result",0.00355064,1.5e-05,0x44,0xFF
"SPI","result",0.0035776,1.5e-05,0xFF,0x00
"SPI","disable",0.00360056,1.99999999e-08,,
"SPI","enable",0.00360182,2.00000004e-08,,
"SPI","result",0.00360782,1.5e-05,0x44,0xFF
"SPI","result",0.00363478,1.5e-05,0xFF,0x00
"SPI","disable",0.00365774,1.99999999e-08,,
"SPI","enable",0.003659,1.99999999e-08,,
"SPI","result",0.00366498,1.5e-05,0x44,0xFF
"SPI","result",0.00369196,1.5e-05,0xFF,0x00
"SPI","disable",0.00371492,1.99999999e-08,,
"SPI","enable",0.00371616,1.99999999e-08,,
"SPI","result",0.00372216,1.5e-05,0x44,0xFF
"SPI","result",0.00374912,1.502e-05,0xFF,0x00
"SPI","disable",0.0037721,1.99999999e-08,,
"SPI","enable",0.00377334,1.99999999e-08,,
"SPI","result",0.00377934,1.5e-05,0x44,0xFF
"SPI","result",0.00380632,1.498e-05,0xFF,0x00
"SPI","disable",0.00384676,2.00000004e-08,,
"SPI","enable",0.003848,1.99999999e-08,,
"SPI","result",0.003854,1.5e-05,0x44,0xFF
"SPI","result",0.00388096,1.5e-05,0xFF,0x00
"SPI","disable",0.00390394,1.99999995e-08,,
"SPI","enable",0.00390518,1.99999995e-08,,
"SPI","result",0.00391118,1.5e-05,0x44,0xFF
"SPI","result",0.00393814,1.5e-05,0xFF,0x00
"SPI","disable",0.0039611,1.99999999e-08,,
"SPI","enable",0.00396236,2.00000004e-08,,
"SPI","result",0.00396836,1.5e-05,0x44,0xFF
"SPI","result",0.00399532,1.5e-05,0xFF,0x00
"SPI","disable",0.00401828,1.99999999e-08,,
"SPI","enable",0.00401954,1.99999999e-08,,
"SPI","result",0.00402552,1.502e-05,0x44,0xFF
"SPI","result",0.0040525,1.5e-05,0xFF,0x00
"SPI","disable",0.00407546,1.99999999e-08,,
"SPI","enable",0.00407672,2.00000004e-08,,
"SPI","result",0.00408272,1.498e-05,0x44,0xFF
"SPI","result",0.00410968,1.5e-05,0xFF,0x00
"SPI","disable",0.00413264,1.99999995e-08,,
"SPI","enable",0.0041339,1.99999999e-08,,
"SPI","result",0.0041399,1.5e-05,0x44,0xFF
"SPI","result",0.00417634,1.5e-05,0xFF,0x00
"SPI","disable",0.00419932,2.00000004e-08,,
"SPI","enable",0.00420056,2.00000004e-08,,
"SPI","result",0.00420656,1.5e-05,0x44,0xFF
"SPI","result",0.00423352,1.5e-05,0xFF,0x00
"SPI","disable",0.0042565,1.99999999e-08,,
"SPI","enable",0.00425774,1.99999999e-08,,
"SPI","result",0.00426374,1.5e-05,0x44,0xFF
"SPI","result",0.0042907,1.5e-05,0xFF,0x00
"SPI","disable",0.00431366,1.99999999e-08,,
"SPI","enable",0.00431492,2.00000004e-08,,
"SPI","result",0.00432092,1.5e-05,0x44,0xFF
"SPI","result",0.00434788,1.5e-05,0xFF,0x00
"SPI","disable",0.00437084,1.99999999e-08,,
"SPI","enable",0.0043721,1.99999999e-08,,
"SPI","result",0.00437808,1.5e-05,0x44,0xFF
"SPI","result",0.00440506,1.5e-05,0xFF,0x00
"SPI","disable",0.00442802,1.99999999e-08,,
"SPI","enable",0.00442928,2.00000004e-08,,
"SPI","result",0.00443526,1.502e-05,0x44,0xFF
"SPI","result",0.00446224,1.5e-05,0xFF,0x00
"SPI","disable",0.00450244,1.99999999e-08,,
"SPI","enable",0.00450368,1.99999999e-08,,
"SPI","result",0.00450968,1.5e-05,0x44,0xFF
"SPI","result",0.00453666,1.5e-05,0xFF,0x00
"SPI","disable",0.00455962,1.99999999e-08,,
"SPI","enable",0.00456088,1.99999999e-08,,
"SPI","result",0.00456686,1.502e-05,0x44,0xFF
"SPI","result",0.00459384,1.5e-05,0xFF,0x00
"SPI","disable",0.00461682,1.99999995e-08,,
"SPI","enable",0.00461806,1.99999995e-08,,
"SPI","result",0.00462406,1.5e-05,0x44,0xFF
"SPI","result",0.00465104,1.5e-05,0xFF,0x00
"SPI","disable",0.004674,1.99999999e-08,,
"SPI","enable",0.00467526,1.99999999e-08,,
"SPI","result",0.00468126,1.5e-05,0x44,0xFF
"SPI","result",0.00470822,1.5e-05,0xFF,0x00
"SPI","disable",0.0047312,1.99999999e-08,,
"SPI","enable",0.00473244,1.99999999e-08,,
"SPI","result",0.00473844,1.5e-05,0x44,0xFF
"SPI","result",0.00476542,1.5e-05,0xFF,0x00
"SPI","disable",0.00478838,1.99999999e-08,,
"SPI","enable",0.00478964,1.99999999e-08,,
"SPI","result",0.00479562,1.502e-05,0x44,0xFF
"SPI","result",0.00483608,1.5e-05,0xFF,0x00
"SPI","disable",0.00485906,1.99999999e-08,,
"SPI","enable",0.0048603,1.99999999e-08,,
"SPI","result",0.0048663,1.5e-05,0x44,0xFF
"SPI","result",0.00489326,1.5e-05,0xFF,0x00
"SPI","disable",0.00491624,1.99999999e-08,,
"SPI","enable",0.00491748,2.00000004e-08,,
"SPI","result",0.00492348,1.5e-05,0x44,0xFF
"SPI","result",0.00502012,1.5e-05,0xFF,0x00
"SPI","disable",0.00504308,2.00000004e-08,,
"SPI","enable",0.00504434,1.99999999e-08,,
"SPI","result",0.00505034,1.5e-05,0x44,0xFF
"SPI","result",0.0050773,1.5e-05,0xFF,0x00
"SPI","disable",0.00510028,1.99999999e-08,,
"SPI","enable",0.00510152,1.99999999e-08,,
"SPI","result",0.00510752,1.5e-05,0x44,0xFF
"SPI","result",0.00515646,1.5e-05,0xFF,0x00
"SPI","disable",0.00517944,1.99999999e-08,,
"SPI","enable",0.00518068,1.99999999e-08,,
"SPI","result",0.00518668,1.5e-05,0x44,0xFF
"SPI","result",0.00521364,1.502e-05,0xFF,0xFF
"SPI","disable",0.00523686,1.99999999e-08,,
"SPI","enable",0.00527282,2.00000004e-08,,
"SPI","result",0.00528232,1.5e-05,0x05,0xFF
"SPI","result",0.00531078,1.5e-05,0x48,0xFF
"SPI","result",0.00533926,1.498e-05,0x23,0xFF
"SPI","result",0.00536772,1.5e-05,0x2E,0xFF
"SPI","result",0.00539618,1.5e-05,0x2B,0xFF
"SPI","result",0.00542464,1.5e-05,0x90,0xFF
"SPI","result",0.0054531,1.5e-05,0xB1,0xFF
"SPI","result",0.00549106,1.5e-05,0x4E,0xFF
"SPI","disable",0.00551578,2.00000004e-08,,
"SPI","enable",0.00552502,1.99999999e-08,,
"SPI","result",0.00553102,1.5e-05,0x44,0xFF
"SPI","result",0.00555798,1.5e-05,0xFF,0x00
"SPI","disable",0.00558094,1.99999999e-08,,
"SPI","enable",0.0055822,2.00000004e-08,,
"SPI","result",0.0055882,1.5e-05,0x44,0xFF
"SPI","result",0.00561516,1.5e-05,0xFF,0xFF
"SPI","disable",0.00563838,1.99999999e-08,,
"SPI","enable",0.00567434,1.99999999e-08,,
"SPI","result",0.00568382,1.5e-05,0xEA,0xFF
"SPI","result",0.00571228,1.5e-05,0x3F,0xFF
"SPI","result",0.00574074,1.5e-05,0xB9,0xFF
"SPI","result",0.00576922,1.498e-05,0xE8,0xFF
"SPI","result",0.00581914,1.5e-05,0x8B,0xFF
"SPI","result",0.00584762,1.5e-05,0xA9,0xFF
"SPI","result",0.00587608,1.5e-05,0xCA,0xFF
"SPI","result",0.00590454,1.5e-05,0xD6,0xFF
"SPI","disable",0.00592926,1.99999999e-08,,
"SPI","enable",0.0059385,2.00000004e-08,,
"SPI","result",0.0059445,1.498e-05,0x44,0xFF
"SPI","result",0.00597146,1.5e-05,0xFF,0x00
"SPI","disable",0.00599442,1.99999999e-08,,
"SPI","enable",0.00599568,1.99999999e-08,,
"SPI","result",0.00600166,1.5e-05,0x44,0xFF
"SPI","result",0.00602864,1.5e-05,0xFF,0xFF
"SPI","disable",0.00605186,1.99999999e-08,,
"SPI","enable",0.0060878,1.99999999e-08,,
"SPI","result",0.0060973,1.5e-05,0x05,0xFF
"SPI","result",0.00614722,1.5e-05,0xD2,0xFF
"SPI","result",0.0061757,1.5e-05,0xE5,0xFF
"SPI","result",0.00620416,1.5e-05,0xBE,0xFF
"SPI","result",0.00623264,1.498e-05,0xD1,0xFF
"SPI","result",0.0062611,1.5e-05,0x27,0xFF
"SPI","result",0.00628956,1.5e-05,0x55,0xFF
"SPI","result",0.00631802,1.5e-05,0x82,0xFF
"SPI","disable",0.00634274,1.99999999e-08,,
"SPI","enable",0.00635198,1.99999999e-08,,
"SPI","result",0.00635796,1.5e-05,0x44,0xFF
"SPI","result",0.00638494,1.5e-05,0xFF,0x00
"SPI","disable",0.0064079,2.00000004e-08,,
"SPI","enable",0.00640916,1.99999999e-08,,
"SPI","result",0.00641516,1.498e-05,0x44,0xFF
"SPI","result",0.00646334,1.5e-05,0xFF,0xFF
"SPI","disable",0.00648656,1.99999995e-08,,
"SPI","enable",0.00652252,1.99999999e-08,,
"SPI","result",0.006532,1.5e-05,0xE5,0xFF
"SPI","result",0.00656048,1.5e-05,0x56,0xFF
"SPI","result",0.00658894,1.5e-05,0x2A,0xFF
"SPI","result",0.0066174,1.5e-05,0x3B,0xFF
"SPI","result",0.00664586,1.5e-05,0x76,0xFF
"SPI","result",0.00667434,1.5e-05,0x76,0xFF
"SPI","result",0.0067028,1.5e-05,0x96,0xFF
"SPI","result",0.00673126,1.5e-05,0x48,0xFF
"SPI","disable",0.00675598,1.99999999e-08,,
"SPI","enable",0.00676522,2.00000004e-08,,
"SPI","result",0.00679268,1.5e-05,0x44,0xFF
"SPI","result",0.00681966,1.498e-05,0xFF,0x00
"SPI","disable",0.00684262,1.99999995e-08,,
"SPI","enable",0.00684386,1.99999999e-08,,
"SPI","result",0.00684986,1.5e-05,0x44,0xFF
"SPI","result",0.00687682,1.5e-05,0xFF,0xFF
"SPI","disable",0.00690004,1.99999999e-08,,
"SPI","enable",0.006936,2.00000004e-08,,
"SPI","result",0.00694548,1.5e-05,0x05,0xFF
"SPI","result",0.00697396,1.5e-05,0x8E,0xFF
"SPI","result",0.00707058,1.5e-05,0x26,0xFF
"SPI","result",0.00712028,1.5e-05,0xD8,0xFF
"SPI","result",0.00714874,1.5e-05,0x5D,0xFF
"SPI","result",0.0071772,1.5e-05,0x01,0xFF
"SPI","result",0.00720568,1.5e-05,0xA7,0xFF
"SPI","result",0.00723414,1.5e-05,0x88,0xFF
"SPI","disable",0.00725886,1.99999999e-08,,
"SPI","enable",0.0072681,2.00000004e-08,,
"SPI","result",0.00727408,1.5e-05,0x44,0xFF
"SPI","result",0.00730104,1.5e-05,0xFF,0x00
"SPI","disable",0.00732402,1.99999999e-08,,
"SPI","enable",0.00732526,1.99999999e-08,,
"SPI","result",0.00733126,1.5e-05,0x44,0xFF
"SPI","result",0.00735822,1.5e-05,0xFF,0xFF
"SPI","disable",0.00738144,2.00000004e-08,,
"SPI","enable",0.0074174,1.99999999e-08,,
"SPI","result",0.0074481,1.5e-05,0xE2,0xFF
"SPI","result",0.00747658,1.5e-05,0x89,0xFF
"SPI","result",0.00750504,1.5e-05,0xCC,0xFF
"SPI","result",0.0075335,1.5e-05,0x63,0xFF
"SPI","result",0.00756196,1.5e-05,0x79,0xFF
"SPI","result",0.00759042,1.5e-05,0x95,0xFF
"SPI","result",0.0076189,1.5e-05,0x00,0xFF
"SPI","result",0.00764736,1.5e-05,0x4B,0xFF
"SPI","disable",0.00767208,1.99999999e-08,,
"SPI","enable",0.00768132,2.00000004e-08,,
"SPI","result",0.0076873,1.5e-05,0x44,0xFF
"SPI","result",0.00771428,1.5e-05,0xFF,0x00
"SPI","disable",0.00773724,1.99999999e-08,,
"SPI","enable",0.0077385,1.99999999e-08,,
"SPI","result",0.00774448,1.5e-05,0x44,0xFF
"SPI","result",0.00778892,1.5e-05,0xFF,0xFF
"SPI","disable",0.00781214,1.99999999e-08,,
"SPI","enable",0.0078481,1.99999999e-08,,
"SPI","result",0.0078576,1.498e-05,0x05,0xFF
"SPI","result",0.00788606,1.5e-05,0xE0,0xFF
"SPI","result",0.00791452,1.5e-05,0x75,0xFF
"SPI","result",0.00794298,1.5e-05,0xCD,0xFF
"SPI","result",0.00797144,1.5e-05,0xA4,0xFF
"SPI","result",0.0079999,1.5e-05,0xB9,0xFF
"SPI","result",0.00802838,1.498e-05,0x46,0xFF
"SPI","result",0.00805684,1.5e-05,0xBC,0xFF
"SPI","disable",0.00810278,1.99999999e-08,,
"SPI","enable",0.008112,2.00000004e-08,,
"SPI","result",0.008118,1.5e-05,0x44,0xFF
"SPI","result",0.00814496,1.5e-05,0xFF,0x00
"SPI","disable",0.00816794,1.99999999e-08,,
"SPI","enable",0.00816918,1.99999999e-08,,
"SPI","result",0.00817518,1.5e-05,0x44,0xFF
"SPI","result",0.00820214,1.5e-05,0xFF,0xFF
"SPI","disable",0.00822536,1.99999999e-08,,
"SPI","enable",0.00826132,1.99999999e-08,,
