name,type,start_time,duration,"mosi","miso"
"SPI","enable",3.12305737e-16,2.00000004e-08,,
"SPI","disable",0.33921564,1.99999995e-08,,
"SPI","enable",0.33925962,2.00000004e-08,,
"SPI","result",0.33926562,1.502e-05,0x44,0xFF
"SPI","result",0.3392926,1.502e-05,0xFF,0x00
"SPI","disable",0.3393156,2.00000004e-08,,
"SPI","enable",0.33931684,2.00000004e-08,,
"SPI","result",0.33932284,1.502e-05,0x44,0xFF
"SPI","result",0.33934984,1.5e-05,0xFF,0x00
"SPI","disable",0.33937282,1.99999995e-08,,
"SPI","enable",0.33937406,1.99999995e-08,,
"SPI","result",0.33938006,1.502e-05,0x44,0xFF
"SPI","result",0.33942828,1.502e-05,0xFF,0x00
"SPI","disable",0.33945128,2.00000004e-08,,
"SPI","enable",0.33945252,2.00000013e-08,,
"SPI","result",0.33945852,1.5e-05,0x44,0xFF
"SPI","result",0.3394855,1.5e-05,0xFF,0x00
"SPI","disable",0.33950848,2.00000004e-08,,
"SPI","enable",0.33950974,2.00000004e-08,,
"SPI","result",0.33951572,1.502e-05,0x44,0xFF
"SPI","result",0.33954272,1.5e-05,0xFF,0x00
"SPI","disable",0.3395657,1.99999995e-08,,
"SPI","enable",0.33956694,2.00000004e-08,,
"SPI","result",0.33957294,1.502e-05,0x44,0xFF
"SPI","result",0.33959992,1.502e-05,0xFF,0x00
"SPI","disable",0.33962292,2.00000013e-08,,
"SPI","enable",0.33962416,2.00000004e-08,,
"SPI","result",0.33963016,1.5e-05,0x44,0xFF
"SPI","result",0.33965714,1.502e-05,0xFF,0x00
"SPI","disable",0.33968012,1.99999995e-08,,
"SPI","enable",0.33968138,2.00000013e-08,,
"SPI","result",0.33968738,1.5e-05,0x44,0xFF
"SPI","result",0.33971436,1.502e-05,0xFF,0x00
"SPI","disable",0.3397586,1.99999995e-08,,
"SPI","enable",0.33975984,1.99999995e-08,,
"SPI","result",0.33976584,1.5e-05,0x44,0xFF
"SPI","result",0.33979282,1.5e-05,0xFF,0x00
"SPI","disable",0.3398158,1.99999995e-08,,
"SPI","enable",0.33981706,2.00000004e-08,,
"SPI","result",0.33982306,1.5e-05,0x44,0xFF
"SPI","result",0.33985004,1.502e-05,0xFF,0x00
"SPI","disable",0.33987302,1.99999995e-08,,
"SPI","enable",0.33987428,2.00000013e-08,,
"SPI","result",0.33988028,1.5e-05,0x44,0xFF
"SPI","result",0.33990726,1.5e-05,0xFF,0x00
"SPI","disable",0.33993024,1.99999995e-08,,
"SPI","enable",0.33993148,1.99999995e-08,,
"SPI","result",0.33993748,1.5e-05,0x44,0xFF
"SPI","result",0.33996446,1.502e-05,0xFF,0x00
"SPI","disable",0.33998744,1.99999995e-08,,
"SPI","enable",0.3399887,2.00000004e-08,,
"SPI","result",0.3399947,1.5e-05,0x44,0xFF
"SPI","result",0.34002168,1.5e-05,0xFF,0x00
"SPI","disable",0.34004466,1.99999995e-08,,
"SPI","enable",0.3400459,1.99999995e-08,,
"SPI","result",0.3400519,1.502e-05,0x44,0xFF
"SPI","result",0.34009638,1.5e-05,0xFF,0x00
"SPI","disable",0.34018758,1.99999995e-08,,
"SPI","enable",0.34018882,1.99999995e-08,,
"SPI","result",0.34019482,1.502e-05,0x44,0xFF
"SPI","result",0.3402218,1.502e-05,0xFF,0xFF
"SPI","disable",0.34024504,2.00000004e-08,,
"SPI","enable",0.34025204,1.99999995e-08,,
"SPI","result",0.34026154,1.5e-05,0x04,0xFF
"SPI","result",0.34029002,1.502e-05,0x21,0xFF
"SPI","result",0.3403185,1.502e-05,0x71,0xFF
"SPI","result",0.340347,1.5e-05,0x4B,0xFF
"SPI","result",0.34037548,1.5e-05,0x00,0xFF
"SPI","result",0.34042544,1.502e-05,0x00,0xFF
"SPI","result",0.34045394,1.5e-05,0xBA,0xFF
"SPI","result",0.34048242,1.5e-05,0x9E,0xFF
"SPI","disable",0.34050714,2.00000004e-08,,
"SPI","enable",0.3405164,1.99999995e-08,,
"SPI","result",0.3405224,1.5e-05,0x44,0xFF
"SPI","result",0.34054938,1.502e-05,0xFF,0x00
"SPI","disable",0.34057236,2.00000004e-08,,
"SPI","enable",0.34057362,1.99999995e-08,,
"SPI","result",0.34057962,1.5e-05,0x44,0xFF
"SPI","result",0.3406066,1.5e-05,0xFF,0x00
"SPI","disable",0.34062958,2.00000004e-08,,
"SPI","enable",0.34063082,2.00000004e-08,,
"SPI","result",0.34063682,1.502e-05,0x44,0xFF
"SPI","result",0.34066382,1.5e-05,0xFF,0x00
"SPI","disable",0.3406868,1.99999995e-08,,
"SPI","enable",0.34068804,1.99999995e-08,,
"SPI","result",0.34069404,1.502e-05,0x44,0xFF
"SPI","result",0.34072102,1.502e-05,0xFF,0x00
"SPI","disable",0.3407495,1.99999995e-08,,
"SPI","enable",0.34075076,1.99999995e-08,,
"SPI","result",0.34075676,1.5e-05,0x44,0xFF
"SPI","result",0.34078374,1.502e-05,0xFF,0x00
"SPI","disable",0.34080672,2.00000004e-08,,
"SPI","enable",0.34080798,2.00000004e-08,,
"SPI","result",0.34081398,1.5e-05,0x44,0xFF
"SPI","result",0.34084096,1.5e-05,0xFF,0x00
"SPI","disable",0.34086394,2.00000004e-08,,
"SPI","enable",0.3408652,1.99999995e-08,,
"SPI","result",0.3408712,1.5e-05,0x44,0xFF
"SPI","result",0.34089818,1.5e-05,0xFF,0x00
"SPI","disable",0.34092116,1.99999995e-08,,
"SPI","enable",0.3409224,1.99999995e-08,,
"SPI","result",0.3409284,1.502e-05,0x44,0xFF
"SPI","result",0.34095538,1.5e-05,0xFF,0x00
"SPI","disable",0.34097836,2.00000004e-08,,
"SPI","enable",0.34097962,1.99999995e-08,,
"SPI","result",0.34098562,1.5e-05,0x44,0xFF
"SPI","result",0.3410126,1.5e-05,0xFF,0x00
"SPI","disable",0.34103558,2.00000004e-08,,
"SPI","enable",0.34103682,2.00000004e-08,,
"SPI","result",0.34104282,1.502e-05,0x44,0xFF
"SPI","result",0.3410833,1.502e-05,0xFF,0x00
"SPI","disable",0.34110628,2.00000004e-08,,
"SPI","enable",0.34110754,1.99999995e-08,,
"SPI","result",0.34111354,1.5e-05,0x44,0xFF
"SPI","result",0.34114052,1.5e-05,0xFF,0x00
"SPI","disable",0.3411635,1.99999995e-08,,
"SPI","enable",0.34116474,1.99999995e-08,,
"SPI","result",0.34117074,1.502e-05,0x44,0xFF
"SPI","result",0.34119772,1.502e-05,0xFF,0x00
"SPI","disable",0.34122072,1.99999995e-08,,
"SPI","enable",0.34122196,1.99999995e-08,,
"SPI","result",0.34122796,1.5e-05,0x44,0xFF
"SPI","result",0.34125494,1.502e-05,0xFF,0x00
"SPI","disable",0.34127792,2.00000004e-08,,
"SPI","enable",0.34127918,1.99999995e-08,,
"SPI","result",0.34128518,1.5e-05,0x44,0xFF
"SPI","result",0.34131216,1.5e-05,0xFF,0x00
"SPI","disable",0.34133514,1.99999995e-08,,
"SPI","enable",0.34133638,1.99999995e-08,,
"SPI","result",0.34134238,1.502e-05,0x44,0xFF
"SPI","result",0.34136938,1.5e-05,0xFF,0x00
"SPI","disable",0.3414096,1.99999995e-08,,
"SPI","enable",0.34141084,1.99999995e-08,,
"SPI","result",0.34141684,1.502e-05,0x44,0xFF
"SPI","result",0.34144382,1.502e-05,0xFF,0x00
"SPI","disable",0.34146682,2.00000004e-08,,
"SPI","enable",0.34146806,2.00000004e-08,,
"SPI","result",0.34147406,1.5e-05,0x44,0xFF
"SPI","result",0.34150104,1.5e-05,0xFF,0x00
"SPI","disable",0.34152402,1.99999995e-08,,
"SPI","enable",0.34152528,2.00000004e-08,,
"SPI","result",0.34153126,1.502e-05,0x44,0xFF
"SPI","result",0.34155826,1.5e-05,0xFF,0x00
"SPI","disable",0.34158124,2.00000004e-08,,
"SPI","enable",0.34158248,1.99999995e-08,,
"SPI","result",0.34158848,1.502e-05,0x44,0xFF
"SPI","result",0.34161546,1.502e-05,0xFF,0x00
"SPI","disable",0.34163846,2.00000004e-08,,
"SPI","enable",0.3416397,2.00000004e-08,,
"SPI","result",0.3416457,1.5e-05,0x44,0xFF
"SPI","result",0.34167268,1.502e-05,0xFF,0x00
"SPI","disable",0.34169566,2.00000004e-08,,
"SPI","enable",0.34169692,2.00000004e-08,,
"SPI","result",0.34170292,1.5e-05,0x44,0xFF
"SPI","result",0.3417434,1.5e-05,0xFF,0x00
"SPI","disable",0.34176638,2.00000004e-08,,
"SPI","enable",0.34176762,2.00000004e-08,,
"SPI","result",0.34177362,1.502e-05,0x44,0xFF
"SPI","result",0.3418006,1.502e-05,0xFF,0x00
"SPI","disable",0.3418236,2.00000004e-08,,
"SPI","enable",0.34182484,1.99999995e-08,,
"SPI","result",0.34183084,1.502e-05,0x44,0xFF
"SPI","result",0.34185782,1.502e-05,0xFF,0x00
"SPI","disable",0.34188082,2.00000004e-08,,
"SPI","enable",0.34188206,1.99999995e-08,,
"SPI","result",0.34188806,1.5e-05,0x44,0xFF
"SPI","result",0.34191504,1.502e-05,0xFF,0x00
"SPI","disable",0.34193804,1.99999995e-08,,
"SPI","enable",0.34193928,2.00000004e-08,,
"SPI","result",0.34194528,1.5e-05,0x44,0xFF
"SPI","result",0.34197226,1.502e-05,0xFF,0x00
"SPI","disable",0.34199524,2.00000004e-08,,
"SPI","enable",0.3419965,2.00000004e-08,,
"SPI","result",0.3420025,1.5e-05,0x44,0xFF
"SPI","result",0.34202948,1.5e-05,0xFF,0x00
"SPI","disable",0.3420657,2.00000004e-08,,
"SPI","enable",0.34206696,2.00000004e-08,,
"SPI","result",0.34207296,1.5e-05,0x44,0xFF
"SPI","result",0.34209994,1.5e-05,0xFF,0x00
"SPI","disable",0.34212292,1.99999995e-08,,
"SPI","enable",0.34212418,2.00000004e-08,,
"SPI","result",0.34213016,1.502e-05,0x44,0xFF
"SPI","result",0.34215716,1.5e-05,0xFF,0x00
"SPI","disable",0.3422326,1.99999995e-08,,
"SPI","enable",0.34223386,2.00000004e-08,,
"SPI","result",0.34223986,1.5e-05,0x44,0xFF
"SPI","result",0.34226684,1.502e-05,0xFF,0x00
"SPI","disable",0.34228982,1.99999995e-08,,
"SPI","enable",0.34229108,1.99999995e-08,,
"SPI","result",0.34229708,1.5e-05,0x44,0xFF
"SPI","result",0.34232406,1.5e-05,0xFF,0x00
"SPI","disable",0.34234704,2.00000004e-08,,
"SPI","enable",0.3423483,1.99999995e-08,,
"SPI","result",0.3423543,1.5e-05,0x44,0xFF
"SPI","result",0.34240276,1.502e-05,0xFF,0x00
"SPI","disable",0.34242574,1.99999995e-08,,
"SPI","enable",0.342427,2.00000004e-08,,
"SPI","result",0.342433,1.5e-05,0x44,0xFF
"SPI","result",0.34245998,1.502e-05,0xFF,0x00
"SPI","disable",0.34248296,1.99999995e-08,,
"SPI","enable",0.34248422,2.00000004e-08,,
"SPI","result",0.34249022,1.5e-05,0x44,0xFF
"SPI","result",0.3425172,1.5e-05,0xFF,0x00
"SPI","disable",0.34254018,1.99999995e-08,,
"SPI","enable",0.34254142,2.00000004e-08,,
"SPI","result",0.34254742,1.502e-05,0x44,0xFF
"SPI","result",0.34257442,1.5e-05,0xFF,0x00
"SPI","disable",0.3425974,2.00000004e-08,,
"SPI","enable",0.34259864,2.00000004e-08,,
"SPI","result",0.34260464,1.502e-05,0x44,0xFF
"SPI","result",0.34263162,1.502e-05,0xFF,0x00
"SPI","disable",0.34265462,2.00000004e-08,,
"SPI","enable",0.34265586,2.00000004e-08,,
"SPI","result",0.34266186,1.5e-05,0x44,0xFF
"SPI","result",0.34268884,1.502e-05,0xFF,0x00
"SPI","disable",0.34272532,2.00000004e-08,,
"SPI","enable",0.34272656,2.00000013e-08,,
"SPI","result",0.34273256,1.502e-05,0x44,0xFF
"SPI","result",0.34275956,1.5e-05,0xFF,0x00
"SPI","disable",0.34278254,1.99999995e-08,,
"SPI","enable",0.34278378,1.99999995e-08,,
"SPI","result",0.34278978,1.5e-05,0x44,0xFF
"SPI","result",0.34281676,1.502e-05,0xFF,0x00
"SPI","disable",0.34283974,2.00000004e-08,,
"SPI","enable",0.342841,1.99999995e-08,,
"SPI","result",0.342847,1.5e-05,0x44,0xFF
"SPI","result",0.34287398,1.5e-05,0xFF,0x00
"SPI","disable",0.34289696,2.00000013e-08,,
"SPI","enable",0.34289822,1.99999995e-08,,
"SPI","result",0.34290422,1.5e-05,0x44,0xFF
"SPI","result",0.3429312,1.5e-05,0xFF,0x00
"SPI","disable",0.34295418,1.99999995e-08,,
"SPI","enable",0.34295544,2.00000004e-08,,
"SPI","result",0.34296144,1.5e-05,0x44,0xFF
"SPI","result",0.34298842,1.5e-05,0xFF,0x00
"SPI","disable",0.3430114,1.99999995e-08,,
"SPI","enable",0.34301264,1.99999995e-08,,
"SPI","result",0.34301864,1.502e-05,0x44,0xFF
"SPI","result",0.34305912,1.5e-05,0xFF,0x00
"SPI","disable",0.3430821,1.99999995e-08,,
"SPI","enable",0.34308336,2.00000004e-08,,
"SPI","result",0.34308934,1.502e-05,0x44,0xFF
"SPI","result",0.34311634,1.5e-05,0xFF,0x00
"SPI","disable",0.34313932,1.99999995e-08,,
"SPI","enable",0.34314056,1.99999995e-08,,
"SPI","result",0.34314658,1.5e-05,0x44,0xFF
"SPI","result",0.34317356,1.5e-05,0xFF,0x00
"SPI","disable",0.34319654,2.00000013e-08,,
"SPI","enable",0.34319778,2.00000004e-08,,
"SPI","result",0.34320378,1.502e-05,0x44,0xFF
"SPI","result",0.34323078,1.5e-05,0xFF,0x00
"SPI","disable",0.34325376,2.00000004e-08,,
"SPI","enable",0.343255,2.00000013e-08,,
"SPI","result",0.343261,1.502e-05,0x44,0xFF
"SPI","result",0.34328798,1.502e-05,0xFF,0x00
"SPI","disable",0.34331098,2.00000004e-08,,
"SPI","enable",0.34331222,1.99999995e-08,,
"SPI","result",0.34331822,1.5e-05,0x44,0xFF
"SPI","result",0.3433452,1.5e-05,0xFF,0x00
"SPI","disable",0.34338568,1.99999995e-08,,
"SPI","enable",0.34338692,1.99999995e-08,,
"SPI","result",0.34339292,1.502e-05,0x44,0xFF
"SPI","result",0.3434199,1.502e-05,0xFF,0x00
"SPI","disable",0.34344288,2.00000004e-08,,
"SPI","enable",0.34344414,2.00000004e-08,,
"SPI","result",0.34345014,1.5e-05,0x44,0xFF
"SPI","result",0.34347712,1.5e-05,0xFF,0x00
"SPI","disable",0.3435001,1.99999995e-08,,
"SPI","enable",0.34350136,2.00000004e-08,,
"SPI","result",0.34350736,1.5e-05,0x44,0xFF
"SPI","result",0.34353434,1.5e-05,0xFF,0x00
"SPI","disable",0.34355732,1.99999995e-08,,
"SPI","enable",0.34355856,1.99999995e-08,,
"SPI","result",0.34356456,1.502e-05,0x44,0xFF
"SPI","result",0.34359154,1.502e-05,0xFF,0x00
"SPI","disable",0.34361452,2.00000013e-08,,
"SPI","enable",0.34361578,2.00000004e-08,,
"SPI","result",0.34362178,1.5e-05,0x44,0xFF
"SPI","result",0.34364876,1.5e-05,0xFF,0x00
"SPI","disable",0.34367174,1.99999995e-08,,
"SPI","enable",0.34367298,2.00000004e-08,,
"SPI","result",0.34367898,1.502e-05,0x44,0xFF
"SPI","result",0.34371946,1.502e-05,0xFF,0x00
"SPI","disable",0.34374244,1.99999995e-08,,
"SPI","enable",0.3437437,2.00000013e-08,,
"SPI","result",0.3437497,1.5e-05,0x44,0xFF
"SPI","result",0.34377668,1.5e-05,0xFF,0x00
"SPI","disable",0.34379966,1.99999995e-08,,
"SPI","enable",0.3438009,1.99999995e-08,,
"SPI","result",0.3438069,1.502e-05,0x44,0xFF
"SPI","result",0.3438339,1.5e-05,0xFF,0x00
"SPI","disable",0.34385688,1.99999995e-08,,
"SPI","enable",0.34385812,2.00000004e-08,,
"SPI","result",0.34386412,1.5e-05,0x44,0xFF
"SPI","result",0.3438911,1.5e-05,0xFF,0x00
"SPI","disable",0.34391408,1.99999995e-08,,
"SPI","enable",0.34391534,2.00000004e-08,,
"SPI","result",0.34392134,1.5e-05,0x44,0xFF
"SPI","result",0.34394832,1.5e-05,0xFF,0x00
"SPI","disable",0.3439713,1.99999995e-08,,
"SPI","enable",0.34397254,1.99999995e-08,,
"SPI","result",0.34397854,1.5e-05,0x44,0xFF
"SPI","result",0.34400552,1.5e-05,0xFF,0x00
"SPI","disable",0.34404198,2.00000013e-08,,
"SPI","enable",0.34404324,1.99999995e-08,,
"SPI","result",0.34404924,1.5e-05,0x44,0xFF
"SPI","result",0.34407622,1.5e-05,0xFF,0x00
"SPI","disable",0.3440992,2.00000004e-08,,
"SPI","enable",0.34410046,2.00000004e-08,,
"SPI","result",0.34410644,1.502e-05,0x44,0xFF
"SPI","result",0.34413342,1.502e-05,0xFF,0x00
"SPI","disable",0.34415642,2.00000004e-08,,
"SPI","enable",0.34415766,1.99999995e-08,,
"SPI","result",0.34416366,1.502e-05,0x44,0xFF
"SPI","result",0.34419064,1.502e-05,0xFF,0x00
"SPI","disable",0.34428358,1.99999995e-08,,
"SPI","enable",0.34428484,2.00000004e-08,,
"SPI","result",0.34429084,1.5e-05,0x44,0xFF
"SPI","result",0.34431782,1.5e-05,0xFF,0x00
"SPI","disable",0.34436228,2.00000004e-08,,
"SPI","enable",0.34436352,2.00000004e-08,,
"SPI","result",0.34436952,1.502e-05,0x44,0xFF
"SPI","result",0.3443965,1.502e-05,0xFF,0x00
"SPI","disable",0.3444195,1.99999995e-08,,
"SPI","enable",0.34442074,1.99999995e-08,,
"SPI","result",0.34442674,1.5e-05,0x44,0xFF
"SPI","result",0.34445372,1.5e-05,0xFF,0x00
"SPI","disable",0.3444767,2.00000004e-08,,
"SPI","enable",0.34447796,1.99999995e-08,,
"SPI","result",0.34448396,1.5e-05,0x44,0xFF
"SPI","result",0.34451094,1.5e-05,0xFF,0xFF
"SPI","disable",0.34453418,1.99999995e-08,,
"SPI","enable",0.34457016,1.99999995e-08,,
"SPI","result",0.34457966,1.5e-05,0x05,0xFF
"SPI","result",0.34460814,1.502e-05,0x48,0xFF
"SPI","result",0.34463662,1.502e-05,0x23,0xFF
"SPI","result",0.34466512,1.5e-05,0x2E,0xFF
"SPI","result",0.34470684,1.502e-05,0x2B,0xFF
"SPI","result",0.34473532,1.502e-05,0x90,0xFF
"SPI","result",0.34476382,1.5e-05,0xB1,0xFF
"SPI","result",0.3447923,1.5e-05,0x4E,0xFF
"SPI","disable",0.34481704,1.99999995e-08,,
"SPI","enable",0.34482628,2.00000004e-08,,
"SPI","result",0.34483228,1.5e-05,0x44,0xFF
"SPI","result",0.34485926,1.5e-05,0xFF,0x00
"SPI","disable",0.34488224,1.99999995e-08,,
"SPI","enable",0.3448835,2.00000004e-08,,
"SPI","result",0.3448895,1.5e-05,0x44,0xFF
"SPI","result",0.34491648,1.5e-05,0xFF,0xFF
"SPI","disable",0.34493972,1.99999995e-08,,
"SPI","enable",0.3449757,2.00000004e-08,,
"SPI","result",0.3449852,1.5e-05,0xEA,0xFF
"SPI","result",0.34503518,1.5e-05,0x3F,0xFF
"SPI","result",0.34506366,1.5e-05,0xB9,0xFF
"SPI","result",0.34509214,1.5e-05,0xE8,0xFF
"SPI","result",0.34512062,1.5e-05,0x8B,0xFF
"SPI","result",0.3451491,1.502e-05,0xA9,0xFF
"SPI","result",0.34517758,1.502e-05,0xCA,0xFF
"SPI","result",0.34520608,1.5e-05,0xD6,0xFF
"SPI","disable",0.34523082,1.99999995e-08,,
"SPI","enable",0.34524006,2.00000013e-08,,
"SPI","result",0.34524606,1.5e-05,0x44,0xFF
"SPI","result",0.34527304,1.5e-05,0xFF,0x00
"SPI","disable",0.34529602,1.99999995e-08,,
"SPI","enable",0.34529728,1.99999995e-08,,
"SPI","result",0.34530328,1.5e-05,0x44,0xFF
"SPI","result",0.34535174,1.502e-05,0xFF,0xFF
"SPI","disable",0.34537498,2.00000004e-08,,
"SPI","enable",0.34541096,1.99999995e-08,,
"SPI","result",0.34542044,1.502e-05,0x05,0xFF
"SPI","result",0.34544894,1.5e-05,0xD2,0xFF
"SPI","result",0.34547742,1.5e-05,0xE5,0xFF
"SPI","result",0.3455059,1.502e-05,0xBE,0xFF
"SPI","result",0.34553438,1.502e-05,0xD1,0xFF
"SPI","result",0.34556286,1.502e-05,0x27,0xFF
"SPI","result",0.34559136,1.5e-05,0x55,0xFF
"SPI","result",0.34561984,1.502e-05,0x82,0xFF
"SPI","disable",0.34564458,2.00000013e-08,,
"SPI","enable",0.34565382,1.99999995e-08,,
"SPI","result",0.34568106,1.502e-05,0x44,0xFF
"SPI","result",0.34570806,1.5e-05,0xFF,0x00
"SPI","disable",0.34573104,1.99999995e-08,,
"SPI","enable",0.34573228,1.99999995e-08,,
"SPI","result",0.34573828,1.502e-05,0x44,0xFF
"SPI","result",0.34576528,1.5e-05,0xFF,0xFF
"SPI","disable",0.3457885,1.99999995e-08,,
"SPI","enable",0.34582448,2.00000004e-08,,
"SPI","result",0.34583398,1.502e-05,0xE5,0xFF
"SPI","result",0.34586248,1.5e-05,0x56,0xFF
"SPI","result",0.34589096,1.5e-05,0x2A,0xFF
"SPI","result",0.34591944,1.5e-05,0x3B,0xFF
"SPI","result",0.34594792,1.5e-05,0x76,0xFF
"SPI","result",0.3459764,1.5e-05,0x76,0xFF
"SPI","result",0.34602238,1.5e-05,0x96,0xFF
"SPI","result",0.34605086,1.5e-05,0x48,0xFF
"SPI","disable",0.3460756,1.99999995e-08,,
"SPI","enable",0.34608484,2.00000004e-08,,
"SPI","result",0.34609084,1.5e-05,0x44,0xFF
"SPI","result",0.34611782,1.5e-05,0xFF,0x00
"SPI","disable",0.3461408,1.99999995e-08,,
"SPI","enable",0.34614206,2.00000004e-08,,
"SPI","result",0.34614806,1.5e-05,0x44,0xFF
"SPI","result",0.34617504,1.5e-05,0xFF,0xFF
"SPI","disable",0.34619828,1.99999995e-08,,
"SPI","enable",0.34623426,2.00000004e-08,,
"SPI","result",0.34624374,1.502e-05,0x05,0xFF
"SPI","result",0.34635068,1.502e-05,0x8E,0xFF
"SPI","result",0.34637918,1.5e-05,0x26,0xFF
"SPI","result",0.34640766,1.5e-05,0xD8,0xFF
"SPI","result",0.34643614,1.502e-05,0x5D,0xFF
"SPI","result",0.34646462,1.502e-05,0x01,0xFF
"SPI","result",0.34649312,1.5e-05,0xA7,0xFF
"SPI","result",0.3465216,1.502e-05,0x88,0xFF
"SPI","disable",0.34654634,1.99999995e-08,,
"SPI","enable",0.34655558,2.00000004e-08,,
"SPI","result",0.34656158,1.5e-05,0x44,0xFF
"SPI","result",0.34658856,1.502e-05,0xFF,0x00
"SPI","disable",0.34661156,2.00000004e-08,,
"SPI","enable",0.3466128,2.00000004e-08,,
"SPI","result",0.3466188,1.502e-05,0x44,0xFF
"SPI","result",0.34664578,1.502e-05,0xFF,0xFF
"SPI","disable",0.34667452,2.00000004e-08,,
"SPI","enable",0.3467105,2.00000004e-08,,
"SPI","result",0.34672,1.5e-05,0xE2,0xFF
"SPI","result",0.34674848,1.502e-05,0x89,0xFF
"SPI","result",0.34677696,1.502e-05,0xCC,0xFF
"SPI","result",0.34680544,1.502e-05,0x63,0xFF
"SPI","result",0.34683394,1.5e-05,0x79,0xFF
"SPI","result",0.34686242,1.5e-05,0x95,0xFF
"SPI","result",0.3468909,1.502e-05,0x00,0xFF
"SPI","result",0.34691938,1.502e-05,0x4B,0xFF
"SPI","disable",0.34694412,1.99999995e-08,,
"SPI","enable",0.34695336,2.00000004e-08,,
"SPI","result",0.34695936,1.502e-05,0x44,0xFF
"SPI","result",0.34700784,1.502e-05,0xFF,0x00
"SPI","disable",0.34703084,2.00000004e-08,,
"SPI","enable",0.34703208,2.00000004e-08,,
"SPI","result",0.34703808,1.5e-05,0x44,0xFF
"SPI","result",0.34706506,1.502e-05,0xFF,0xFF
"SPI","disable",0.3470883,1.99999995e-08,,
"SPI","enable",0.34712428,2.00000013e-08,,
"SPI","result",0.34713378,1.5e-05,0x05,0xFF
"SPI","result",0.34716226,1.502e-05,0xE0,0xFF
"SPI","result",0.34719074,1.502e-05,0x75,0xFF
"SPI","result",0.34721924,1.5e-05,0xCD,0xFF
"SPI","result",0.34724772,1.5e-05,0xA4,0xFF
"SPI","result",0.3472762,1.502e-05,0xB9,0xFF
"SPI","result",0.34732618,1.5e-05,0x46,0xFF
"SPI","result",0.34735466,1.502e-05,0xBC,0xFF
"SPI","disable",0.3473794,1.99999995e-08,,
"SPI","enable",0.34738864,2.00000004e-08,,
"SPI","result",0.34739464,1.502e-05,0x44,0xFF
"SPI","result",0.34742164,1.5e-05,0xFF,0x00
