name,type,start_time,duration,"mosi","miso"
"SPI","enable",1.62703184e-16,1.99999999e-08,,
"SPI","disable",0.00022766,2.00000004e-08,,
"SPI","enable",0.00022768,1.99999999e-08,,
"SPI","disable",0.4081371,1.99999999e-08,,
"SPI","enable",0.408181,1.99999995e-08,,
"SPI","result",0.40818698,1.498e-05,0x44,0xFF
"SPI","result",0.40821392,1.498e-05,0xFF,0x00
"SPI","disable",0.40823686,2.00000004e-08,,
"SPI","enable",0.40823812,1.99999999e-08,,
"SPI","result",0.4082441,1.498e-05,0x44,0xFF
"SPI","result",0.40827104,1.498e-05,0xFF,0x00
"SPI","disable",0.40829398,1.99999999e-08,,
"SPI","enable",0.40829522,1.99999999e-08,,
"SPI","result",0.40830122,1.498e-05,0x44,0xFF
"SPI","result",0.40833764,1.498e-05,0xFF,0x00
"SPI","disable",0.40836058,1.99999999e-08,,
"SPI","enable",0.40836182,2.00000004e-08,,
"SPI","result",0.40836782,1.498e-05,0x44,0xFF
"SPI","result",0.40839476,1.498e-05,0xFF,0x00
"SPI","disable",0.4084177,1.99999995e-08,,
"SPI","enable",0.40841894,1.99999999e-08,,
"SPI","result",0.40842494,1.498e-05,0x44,0xFF
"SPI","result",0.40845188,1.5e-05,0xFF,0x00
"SPI","disable",0.40847484,1.99999999e-08,,
"SPI","enable",0.40847608,1.99999999e-08,,
"SPI","result",0.40848206,1.5e-05,0x44,0xFF
"SPI","result",0.40850902,1.498e-05,0xFF,0x00
"SPI","disable",0.40853196,1.99999999e-08,,
"SPI","enable",0.4085332,1.99999999e-08,,
"SPI","result",0.4085392,1.498e-05,0x44,0xFF
"SPI","result",0.40856614,1.498e-05,0xFF,0x00
"SPI","disable",0.40858908,1.99999995e-08,,
"SPI","enable",0.40859032,1.99999995e-08,,
"SPI","result",0.40859632,1.498e-05,0x44,0xFF
"SPI","result",0.40862326,1.498e-05,0xFF,0x00
"SPI","disable",0.40865968,1.99999999e-08,,
"SPI","enable",0.40866092,1.99999999e-08,,
"SPI","result",0.40866692,1.498e-05,0x44,0xFF
"SPI","result",0.40869386,1.498e-05,0xFF,0x00
"SPI","disable",0.4087168,2.00000004e-08,,
"SPI","enable",0.40871804,2.00000004e-08,,
"SPI","result",0.40872404,1.498e-05,0x44,0xFF
"SPI","result",0.40875098,1.498e-05,0xFF,0x00
"SPI","disable",0.40877392,1.99999999e-08,,
"SPI","enable",0.40877518,2.00000004e-08,,
"SPI","result",0.40878116,1.5e-05,0x44,0xFF
"SPI","result",0.4088081,1.5e-05,0xFF,0x00
"SPI","disable",0.40883106,1.99999995e-08,,
"SPI","enable",0.4088323,1.99999999e-08,,
"SPI","result",0.4088383,1.498e-05,0x44,0xFF
"SPI","result",0.40886524,1.498e-05,0xFF,0x00
"SPI","disable",0.40888818,1.99999999e-08,,
"SPI","enable",0.40888942,1.99999999e-08,,
"SPI","result",0.40889542,1.498e-05,0x44,0xFF
"SPI","result",0.40892236,1.498e-05,0xFF,0x00
"SPI","disable",0.4089453,1.99999999e-08,,
"SPI","enable",0.40894656,1.99999999e-08,,
"SPI","result",0.40895254,1.498e-05,0x44,0xFF
"SPI","result",0.40899296,1.498e-05,0xFF,0x00
"SPI","disable",0.4090159,1.99999999e-08,,
"SPI","enable",0.40901716,1.99999999e-08,,
"SPI","result",0.40902314,1.498e-05,0x44,0xFF
"SPI","result",0.40905008,1.498e-05,0xFF,0x00
"SPI","disable",0.40907302,1.99999999e-08,,
"SPI","enable",0.40914238,1.99999999e-08,,
"SPI","result",0.40914836,1.5e-05,0x44,0xFF
"SPI","result",0.4091753,1.5e-05,0xFF,0xFF
"SPI","disable",0.4091985,1.99999999e-08,,
"SPI","enable",0.4092055,2.00000004e-08,,
"SPI","result",0.40921498,1.498e-05,0x04,0xFF
"SPI","result",0.40924342,1.498e-05,0x21,0xFF
"SPI","result",0.40927186,1.498e-05,0x71,0xFF
"SPI","result",0.40932174,1.498e-05,0x4B,0xFF
"SPI","result",0.40935018,1.498e-05,0x00,0xFF
"SPI","result",0.40937862,1.498e-05,0x00,0xFF
"SPI","result",0.40940706,1.498e-05,0xBA,0xFF
"SPI","result",0.4094355,1.498e-05,0x9E,0xFF
"SPI","disable",0.4094602,1.99999995e-08,,
"SPI","enable",0.40946942,1.99999999e-08,,
"SPI","result",0.40947542,1.498e-05,0x44,0xFF
"SPI","result",0.40950236,1.498e-05,0xFF,0x00
"SPI","disable",0.4095253,1.99999999e-08,,
"SPI","enable",0.40952656,2.00000004e-08,,
"SPI","result",0.40953254,1.5e-05,0x44,0xFF
"SPI","result",0.4095595,1.498e-05,0xFF,0x00
"SPI","disable",0.40958244,1.99999999e-08,,
"SPI","enable",0.4095837,1.99999999e-08,,
"SPI","result",0.40958968,1.498e-05,0x44,0xFF
"SPI","result",0.40963808,1.498e-05,0xFF,0x00
"SPI","disable",0.40966102,2.00000004e-08,,
"SPI","enable",0.40966228,1.99999999e-08,,
"SPI","result",0.40966826,1.498e-05,0x44,0xFF
"SPI","result",0.4096952,1.498e-05,0xFF,0x00
"SPI","disable",0.40971816,1.99999999e-08,,
"SPI","enable",0.4097194,2.00000004e-08,,
"SPI","result",0.4097254,1.498e-05,0x44,0xFF
"SPI","result",0.40975234,1.498e-05,0xFF,0x00
"SPI","disable",0.40977528,1.99999999e-08,,
"SPI","enable",0.40977652,1.99999999e-08,,
"SPI","result",0.40978252,1.498e-05,0x44,0xFF
"SPI","result",0.40980946,1.498e-05,0xFF,0x00
"SPI","disable",0.4098324,1.99999999e-08,,
"SPI","enable",0.40983366,1.99999999e-08,,
"SPI","result",0.40983964,1.498e-05,0x44,0xFF
"SPI","result",0.40986658,1.5e-05,0xFF,0x00
"SPI","disable",0.40988954,1.99999995e-08,,
"SPI","enable",0.40989078,1.99999995e-08,,
"SPI","result",0.40989678,1.498e-05,0x44,0xFF
"SPI","result",0.40992372,1.498e-05,0xFF,0x00
"SPI","disable",0.40996788,1.99999995e-08,,
"SPI","enable",0.40996912,1.99999999e-08,,
"SPI","result",0.40997512,1.498e-05,0x44,0xFF
"SPI","result",0.41000206,1.498e-05,0xFF,0x00
"SPI","disable",0.410025,1.99999999e-08,,
"SPI","enable",0.41002626,1.99999999e-08,,
"SPI","result",0.41003224,1.5e-05,0x44,0xFF
"SPI","result",0.41005918,1.5e-05,0xFF,0x00
"SPI","disable",0.41008214,2.00000004e-08,,
"SPI","enable",0.41008338,2.00000004e-08,,
"SPI","result",0.41008938,1.498e-05,0x44,0xFF
"SPI","result",0.41011632,1.498e-05,0xFF,0x00
"SPI","disable",0.41013926,1.99999995e-08,,
"SPI","enable",0.41014052,2.00000004e-08,,
"SPI","result",0.4101465,1.498e-05,0x44,0xFF
"SPI","result",0.41017344,1.5e-05,0xFF,0x00
"SPI","disable",0.4101964,1.99999999e-08,,
"SPI","enable",0.41019764,1.99999999e-08,,
"SPI","result",0.41020364,1.498e-05,0x44,0xFF
"SPI","result",0.41023058,1.498e-05,0xFF,0x00
"SPI","disable",0.41025352,1.99999999e-08,,
"SPI","enable",0.41025476,1.99999999e-08,,
"SPI","result",0.41026076,1.498e-05,0x44,0xFF
"SPI","result",0.41030516,1.498e-05,0xFF,0x00
"SPI","disable",0.4103281,1.99999999e-08,,
"SPI","enable",0.41032936,1.99999999e-08,,
"SPI","result",0.41033534,1.498e-05,0x44,0xFF
"SPI","result",0.41036228,1.5e-05,0xFF,0x00
"SPI","disable",0.41038524,2.00000004e-08,,
"SPI","enable",0.41038648,2.00000004e-08,,
"SPI","result",0.41039248,1.498e-05,0x44,0xFF
"SPI","result",0.41041942,1.498e-05,0xFF,0x00
"SPI","disable",0.41044236,1.99999999e-08,,
"SPI","enable",0.4104436,1.99999999e-08,,
"SPI","result",0.4104496,1.498e-05,0x44,0xFF
"SPI","result",0.41047654,1.5e-05,0xFF,0x00
"SPI","disable",0.4104995,1.99999999e-08,,
"SPI","enable",0.41050074,1.99999995e-08,,
"SPI","result",0.41050674,1.498e-05,0x44,0xFF
"SPI","result",0.41053368,1.498e-05,0xFF,0x00
"SPI","disable",0.41055664,1.99999999e-08,,
"SPI","enable",0.41055788,1.99999999e-08,,
"SPI","result",0.41056386,1.5e-05,0x44,0xFF
"SPI","result",0.41059082,1.498e-05,0xFF,0x00
"SPI","disable",0.41062724,2.00000004e-08,,
"SPI","enable",0.41062848,2.00000004e-08,,
"SPI","result",0.41063448,1.498e-05,0x44,0xFF
"SPI","result",0.41066142,1.498e-05,0xFF,0x00
"SPI","disable",0.41068436,1.99999999e-08,,
"SPI","enable",0.4106856,1.99999999e-08,,
"SPI","result",0.4106916,1.498e-05,0x44,0xFF
"SPI","result",0.41071854,1.498e-05,0xFF,0x00
"SPI","disable",0.4107415,1.99999999e-08,,
"SPI","enable",0.41074274,1.99999999e-08,,
"SPI","result",0.41074872,1.5e-05,0x44,0xFF
"SPI","result",0.41077566,1.5e-05,0xFF,0x00
"SPI","disable",0.41079862,1.99999999e-08,,
"SPI","enable",0.41079986,1.99999999e-08,,
"SPI","result",0.41080584,1.5e-05,0x44,0xFF
"SPI","result",0.4108328,1.498e-05,0xFF,0x00
"SPI","disable",0.41085574,2.00000004e-08,,
"SPI","enable",0.41085698,2.00000004e-08,,
"SPI","result",0.41086298,1.498e-05,0x44,0xFF
"SPI","result",0.41088992,1.498e-05,0xFF,0x00
"SPI","disable",0.41091286,1.99999999e-08,,
"SPI","enable",0.4109141,1.99999999e-08,,
"SPI","result",0.4109201,1.498e-05,0x44,0xFF
"SPI","result",0.4109605,1.5e-05,0xFF,0x00
"SPI","disable",0.41098346,1.99999999e-08,,
"SPI","enable",0.4109847,2.00000004e-08,,
"SPI","result",0.41099068,1.5e-05,0x44,0xFF
"SPI","result",0.41101762,1.5e-05,0xFF,0x00
"SPI","disable",0.41104058,1.99999999e-08,,
"SPI","enable",0.41104182,1.99999999e-08,,
"SPI","result",0.41104782,1.498e-05,0x44,0xFF
"SPI","result",0.41107476,1.498e-05,0xFF,0x00
"SPI","disable",0.4110977,1.99999999e-08,,
"SPI","enable",0.41109894,1.99999999e-08,,
"SPI","result",0.41110494,1.498e-05,0x44,0xFF
"SPI","result",0.41120022,1.498e-05,0xFF,0x00
"SPI","disable",0.41122316,1.99999999e-08,,
"SPI","enable",0.41122442,1.99999999e-08,,
"SPI","result",0.4112304,1.498e-05,0x44,0xFF
"SPI","result",0.41127854,1.498e-05,0xFF,0x00
"SPI","disable",0.4113015,1.99999999e-08,,
"SPI","enable",0.41130274,1.99999999e-08,,
"SPI","result",0.41130874,1.498e-05,0x44,0xFF
"SPI","result",0.41133568,1.498e-05,0xFF,0x00
"SPI","disable",0.41135862,2.00000004e-08,,
"SPI","enable",0.41135986,2.00000004e-08,,
"SPI","result",0.41136586,1.498e-05,0x44,0xFF
"SPI","result",0.4113928,1.498e-05,0xFF,0x00
"SPI","disable",0.41141576,1.99999999e-08,,
"SPI","enable",0.411417,2.00000004e-08,,
"SPI","result",0.41142298,1.5e-05,0x44,0xFF
"SPI","result",0.41144994,1.498e-05,0xFF,0x00
"SPI","disable",0.41147288,1.99999999e-08,,
"SPI","enable",0.41147412,1.99999999e-08,,
"SPI","result",0.41148012,1.498e-05,0x44,0xFF
"SPI","result",0.41150706,1.5e-05,0xFF,0x00
"SPI","disable",0.41153002,1.99999999e-08,,
"SPI","enable",0.41153126,1.99999999e-08,,
"SPI","result",0.41153726,1.498e-05,0x44,0xFF
"SPI","result",0.4115642,1.498e-05,0xFF,0x00
"SPI","disable",0.41160836,1.99999999e-08,,
"SPI","enable",0.4116096,1.99999999e-08,,
"SPI","result",0.41161558,1.5e-05,0x44,0xFF
"SPI","result",0.41164254,1.498e-05,0xFF,0x00
"SPI","disable",0.41166548,1.99999999e-08,,
"SPI","enable",0.41166672,1.99999999e-08,,
"SPI","result",0.41167272,1.498e-05,0x44,0xFF
"SPI","result",0.41169966,1.498e-05,0xFF,0x00
"SPI","disable",0.41172262,1.99999999e-08,,
"SPI","enable",0.41172386,1.99999999e-08,,
"SPI","result",0.41172986,1.498e-05,0x44,0xFF
"SPI","result",0.4117568,1.498e-05,0xFF,0x00
"SPI","disable",0.41177974,1.99999999e-08,,
"SPI","enable",0.411781,1.99999999e-08,,
"SPI","result",0.41178698,1.5e-05,0x44,0xFF
"SPI","result",0.41181394,1.498e-05,0xFF,0x00
"SPI","disable",0.41183688,1.99999999e-08,,
"SPI","enable",0.41183812,1.99999999e-08,,
"SPI","result",0.41184412,1.498e-05,0x44,0xFF
"SPI","result",0.41187106,1.498e-05,0xFF,0x00
"SPI","disable",0.411894,2.00000004e-08,,
"SPI","enable",0.41189526,1.99999999e-08,,
"SPI","result",0.41190124,1.498e-05,0x44,0xFF
"SPI","result",0.41194564,1.5e-05,0xFF,0x00
"SPI","disable",0.4119686,1.99999999e-08,,
"SPI","enable",0.41196984,1.99999999e-08,,
"SPI","result",0.41197584,1.498e-05,0x44,0xFF
"SPI","result",0.41200278,1.498e-05,0xFF,0x00
"SPI","disable",0.41202572,1.99999995e-08,,
"SPI","enable",0.41202696,1.99999999e-08,,
"SPI","result",0.41203296,1.498e-05,0x44,0xFF
"SPI","result",0.4120599,1.498e-05,0xFF,0x00
"SPI","disable",0.41208284,1.99999999e-08,,
"SPI","enable",0.4120841,1.99999999e-08,,
"SPI","result",0.41209008,1.498e-05,0x44,0xFF
"SPI","result",0.41211702,1.498e-05,0xFF,0x00
"SPI","disable",0.41213996,2.00000004e-08,,
"SPI","enable",0.41214122,1.99999999e-08,,
"SPI","result",0.4121472,1.5e-05,0x44,0xFF
"SPI","result",0.41217414,1.5e-05,0xFF,0x00
"SPI","disable",0.4121971,2.00000004e-08,,
"SPI","enable",0.41219834,1.99999995e-08,,
"SPI","result",0.41220434,1.498e-05,0x44,0xFF
"SPI","result",0.41223128,1.498e-05,0xFF,0x00
"SPI","disable",0.41227168,1.99999999e-08,,
"SPI","enable",0.41227292,1.99999999e-08,,
"SPI","result",0.41227892,1.498e-05,0x44,0xFF
"SPI","result",0.41230586,1.498e-05,0xFF,0x00
"SPI","disable",0.4123288,1.99999995e-08,,
"SPI","enable",0.41233006,1.99999999e-08,,
"SPI","result",0.41233604,1.5e-05,0x44,0xFF
"SPI","result",0.41236298,1.5e-05,0xFF,0x00
"SPI","disable",0.41238594,1.99999999e-08,,
"SPI","enable",0.41238718,1.99999999e-08,,
"SPI","result",0.41239318,1.498e-05,0x44,0xFF
"SPI","result",0.41242012,1.498e-05,0xFF,0x00
"SPI","disable",0.41244306,2.00000004e-08,,
"SPI","enable",0.4124443,2.00000004e-08,,
"SPI","result",0.4124503,1.498e-05,0x44,0xFF
"SPI","result",0.41247724,1.498e-05,0xFF,0x00
"SPI","disable",0.41250018,1.99999999e-08,,
"SPI","enable",0.41250144,1.99999999e-08,,
"SPI","result",0.41250742,1.498e-05,0x44,0xFF
"SPI","result",0.41253436,1.5e-05,0xFF,0x00
"SPI","disable",0.41255732,1.99999999e-08,,
"SPI","enable",0.41255856,1.99999999e-08,,
"SPI","result",0.41256456,1.498e-05,0x44,0xFF
"SPI","result",0.41260122,1.498e-05,0xFF,0x00
"SPI","disable",0.41262416,1.99999999e-08,,
"SPI","enable",0.41262542,1.99999999e-08,,
"SPI","result",0.4126314,1.498e-05,0x44,0xFF
"SPI","result",0.41265834,1.498e-05,0xFF,0x00
"SPI","disable",0.41268128,2.00000004e-08,,
"SPI","enable",0.41268254,1.99999999e-08,,
"SPI","result",0.41268852,1.498e-05,0x44,0xFF
"SPI","result",0.41271546,1.5e-05,0xFF,0x00
"SPI","disable",0.41273842,2.00000004e-08,,
"SPI","enable",0.41273966,2.00000004e-08,,
"SPI","result",0.41274566,1.498e-05,0x44,0xFF
"SPI","result",0.4127726,1.498e-05,0xFF,0x00
"SPI","disable",0.41279554,1.99999999e-08,,
"SPI","enable",0.4127968,2.00000004e-08,,
"SPI","result",0.41280278,1.5e-05,0x44,0xFF
"SPI","result",0.41282972,1.5e-05,0xFF,0x00
"SPI","disable",0.41285268,1.99999999e-08,,
"SPI","enable",0.41285392,1.99999995e-08,,
"SPI","result",0.41285992,1.498e-05,0x44,0xFF
"SPI","result",0.41288686,1.498e-05,0xFF,0x00
"SPI","disable",0.41292726,1.99999999e-08,,
"SPI","enable",0.4129285,1.99999999e-08,,
"SPI","result",0.4129345,1.498e-05,0x44,0xFF
"SPI","result",0.41296144,1.498e-05,0xFF,0x00
"SPI","disable",0.41298438,1.99999999e-08,,
"SPI","enable",0.41298564,1.99999999e-08,,
"SPI","result",0.41299162,1.5e-05,0x44,0xFF
"SPI","result",0.41301858,1.498e-05,0xFF,0x00
"SPI","disable",0.41304152,2.00000004e-08,,
"SPI","enable",0.41304276,2.00000004e-08,,
"SPI","result",0.41304876,1.498e-05,0x44,0xFF
"SPI","result",0.4130757,1.498e-05,0xFF,0x00
"SPI","disable",0.41309864,1.99999999e-08,,
"SPI","enable",0.4130999,2.00000004e-08,,
"SPI","result",0.41310588,1.5e-05,0x44,0xFF
"SPI","result",0.41313282,1.5e-05,0xFF,0x00
"SPI","disable",0.41315578,1.99999995e-08,,
"SPI","enable",0.41315702,1.99999999e-08,,
"SPI","result",0.4132506,1.498e-05,0x44,0xFF
"SPI","result",0.41327754,1.498e-05,0xFF,0x00
"SPI","disable",0.41330048,1.99999999e-08,,
"SPI","enable",0.41330174,1.99999999e-08,,
"SPI","result",0.41330772,1.498e-05,0x44,0xFF
"SPI","result",0.41333466,1.498e-05,0xFF,0x00
"SPI","disable",0.41335762,2.00000004e-08,,
"SPI","enable",0.41335886,1.99999999e-08,,
"SPI","result",0.41336486,1.498e-05,0x44,0xFF
"SPI","result",0.4133918,1.498e-05,0xFF,0xFF
"SPI","disable",0.413415,2.00000004e-08,,
"SPI","enable",0.41345092,1.99999999e-08,,
"SPI","result",0.4134604,1.498e-05,0x05,0xFF
"SPI","result",0.41348884,1.498e-05,0x48,0xFF
"SPI","result",0.41351728,1.498e-05,0x23,0xFF
"SPI","result",0.41354572,1.498e-05,0x2E,0xFF
"SPI","result",0.41358762,1.5e-05,0x2B,0xFF
"SPI","result",0.41361608,1.498e-05,0x90,0xFF
"SPI","result",0.41364452,1.498e-05,0xB1,0xFF
"SPI","result",0.41367296,1.498e-05,0x4E,0xFF
"SPI","disable",0.41369766,1.99999999e-08,,
"SPI","enable",0.41370688,1.99999999e-08,,
"SPI","result",0.41371286,1.5e-05,0x44,0xFF
"SPI","result",0.41373982,1.498e-05,0xFF,0x00
"SPI","disable",0.41376276,1.99999999e-08,,
"SPI","enable",0.413764,1.99999999e-08,,
"SPI","result",0.41377,1.498e-05,0x44,0xFF
"SPI","result",0.41379694,1.498e-05,0xFF,0xFF
"SPI","disable",0.41382014,1.99999999e-08,,
"SPI","enable",0.41385606,1.99999999e-08,,
"SPI","result",0.41386554,1.5e-05,0xEA,0xFF
"SPI","result",0.41391518,1.5e-05,0x3F,0xFF
"SPI","result",0.41394362,1.498e-05,0xB9,0xFF
"SPI","result",0.41397206,1.498e-05,0xE8,0xFF
"SPI","result",0.4140005,1.498e-05,0x8B,0xFF
"SPI","result",0.41402894,1.498e-05,0xA9,0xFF
"SPI","result",0.41405738,1.498e-05,0xCA,0xFF
"SPI","result",0.4140858,1.5e-05,0xD6,0xFF
"SPI","disable",0.4141105,1.99999995e-08,,
"SPI","enable",0.41411974,1.99999999e-08,,
"SPI","result",0.41412572,1.498e-05,0x44,0xFF
"SPI","result",0.41415266,1.5e-05,0xFF,0x00
"SPI","disable",0.41417562,1.99999999e-08,,
"SPI","enable",0.41417686,1.99999999e-08,,
"SPI","result",0.41418284,1.5e-05,0x44,0xFF
"SPI","result",0.4142098,1.498e-05,0xFF,0xFF
"SPI","disable",0.41423848,1.99999995e-08,,
"SPI","enable",0.4142744,1.99999995e-08,,
"SPI","result",0.41428388,1.5e-05,0x05,0xFF
"SPI","result",0.41431232,1.5e-05,0xD2,0xFF
"SPI","result",0.41434076,1.5e-05,0xE5,0xFF
"SPI","result",0.41436922,1.498e-05,0xBE,0xFF
"SPI","result",0.41439764,1.5e-05,0xD1,0xFF
"SPI","result",0.41442608,1.5e-05,0x27,0xFF
"SPI","result",0.41445454,1.498e-05,0x55,0xFF
"SPI","result",0.41448296,1.5e-05,0x82,0xFF
"SPI","disable",0.41450766,1.99999999e-08,,
"SPI","enable",0.4145169,2.00000004e-08,,
"SPI","result",0.41452288,1.5e-05,0x44,0xFF
"SPI","result",0.41457128,1.498e-05,0xFF,0x00
"SPI","disable",0.41459422,2.00000004e-08,,
"SPI","enable",0.41459548,1.99999999e-08,,
"SPI","result",0.41460146,1.498e-05,0x44,0xFF
"SPI","result",0.4146284,1.498e-05,0xFF,0xFF
"SPI","disable",0.4146516,1.99999995e-08,,
"SPI","enable",0.41468754,1.99999999e-08,,
"SPI","result",0.41469702,1.498e-05,0xE5,0xFF
"SPI","result",0.41472544,1.5e-05,0x56,0xFF
"SPI","result",0.4147539,1.498e-05,0x2A,0xFF
"SPI","result",0.41478234,1.498e-05,0x3B,0xFF
"SPI","result",0.41481078,1.498e-05,0x76,0xFF
"SPI","result",0.41483922,1.498e-05,0x76,0xFF
"SPI","result",0.41488886,1.5e-05,0x96,0xFF
"SPI","result",0.4149173,1.5e-05,0x48,0xFF
"SPI","disable",0.414942,1.99999999e-08,,
"SPI","enable",0.41495124,1.99999999e-08,,
"SPI","result",0.41495722,1.5e-05,0x44,0xFF
"SPI","result",0.41498418,1.498e-05,0xFF,0x00
"SPI","disable",0.41500712,1.99999999e-08,,
"SPI","enable",0.41500836,1.99999999e-08,,
"SPI","result",0.41501436,1.5e-05,0x44,0xFF
"SPI","result",0.4150413,1.5e-05,0xFF,0xFF
"SPI","disable",0.4150645,2.00000004e-08,,
"SPI","enable",0.41510044,1.99999999e-08,,
"SPI","result",0.41510992,1.5e-05,0x05,0xFF
"SPI","result",0.41513836,1.5e-05,0x8E,0xFF
"SPI","result",0.4151668,1.5e-05,0x26,0xFF
"SPI","result",0.41528506,1.498e-05,0xD8,0xFF
"SPI","result",0.4153135,1.498e-05,0x5D,0xFF
"SPI","result",0.41534194,1.498e-05,0x01,0xFF
"SPI","result",0.41537036,1.5e-05,0xA7,0xFF
"SPI","result",0.4153988,1.498e-05,0x88,0xFF
"SPI","disable",0.4154235,1.99999999e-08,,
"SPI","enable",0.41543272,1.99999999e-08,,
"SPI","result",0.41543872,1.498e-05,0x44,0xFF
"SPI","result",0.41546566,1.498e-05,0xFF,0x00
"SPI","disable",0.41548862,1.99999999e-08,,
"SPI","enable",0.41548986,2.00000004e-08,,
"SPI","result",0.41549584,1.5e-05,0x44,0xFF
"SPI","result",0.41552278,1.5e-05,0xFF,0xFF
"SPI","disable",0.41555146,2.00000004e-08,,
"SPI","enable",0.4155874,1.99999999e-08,,
"SPI","result",0.41559688,1.498e-05,0xE2,0xFF
"SPI","result",0.4156253,1.5e-05,0x89,0xFF
"SPI","result",0.41565374,1.498e-05,0xCC,0xFF
"SPI","result",0.41568218,1.5e-05,0x63,0xFF
"SPI","result",0.41571062,1.498e-05,0x79,0xFF
"SPI","result",0.41573906,1.498e-05,0x95,0xFF
"SPI","result",0.4157675,1.498e-05,0x00,0xFF
"SPI","result",0.41579594,1.498e-05,0x4B,0xFF
"SPI","disable",0.41582064,1.99999999e-08,,
"SPI","enable",0.41582986,1.99999999e-08,,
"SPI","result",0.41583586,1.498e-05,0x44,0xFF
"SPI","result",0.41588426,1.498e-05,0xFF,0x00
"SPI","disable",0.4159072,1.99999995e-08,,
"SPI","enable",0.41590846,1.99999999e-08,,
"SPI","result",0.41591444,1.498e-05,0x44,0xFF
"SPI","result",0.41594138,1.498e-05,0xFF,0xFF
"SPI","disable",0.41596458,1.99999999e-08,,
"SPI","enable",0.4160005,1.99999999e-08,,
"SPI","result",0.41600998,1.498e-05,0x05,0xFF
"SPI","result",0.41603842,1.498e-05,0xE0,0xFF
"SPI","result",0.41606686,1.498e-05,0x75,0xFF
"SPI","result",0.4160953,1.498e-05,0xCD,0xFF
"SPI","result",0.41612374,1.498e-05,0xA4,0xFF
"SPI","result",0.41615216,1.5e-05,0xB9,0xFF
"SPI","result",0.41620182,1.498e-05,0x46,0xFF
"SPI","result",0.41623024,1.5e-05,0xBC,0xFF
"SPI","disable",0.41625494,1.99999999e-08,,
"SPI","enable",0.41626418,2.00000004e-08,,
